"Freq [GHz]","dB(S(1,1)) [] - $eps1='4' $eps2='0.3'","dB(S(1,1)) [] - $eps1='5' $eps2='0.6'","dB(S(1,1)) [] - $eps1='6' $eps2='0.9'","dB(S(1,1)) [] - $eps1='7' $eps2='1.1'","dB(S(1,1)) [] - $eps1='8' $eps2='1.4'","dB(S(1,1)) [] - $eps1='9' $eps2='1.8'","dB(S(1,1)) [] - $eps1='10' $eps2='2.1'","dB(S(1,1)) [] - $eps1='11' $eps2='2.5'","dB(S(1,1)) [] - $eps1='12' $eps2='2.8'","dB(S(1,1)) [] - $eps1='13' $eps2='3.1'","dB(S(1,1)) [] - $eps1='14' $eps2='3.6'","ang_deg_val(S(1,1)) [] - $eps1='4' $eps2='0.3'","ang_deg_val(S(1,1)) [] - $eps1='5' $eps2='0.6'","ang_deg_val(S(1,1)) [] - $eps1='6' $eps2='0.9'","ang_deg_val(S(1,1)) [] - $eps1='7' $eps2='1.1'","ang_deg_val(S(1,1)) [] - $eps1='8' $eps2='1.4'","ang_deg_val(S(1,1)) [] - $eps1='9' $eps2='1.8'","ang_deg_val(S(1,1)) [] - $eps1='10' $eps2='2.1'","ang_deg_val(S(1,1)) [] - $eps1='11' $eps2='2.5'","ang_deg_val(S(1,1)) [] - $eps1='12' $eps2='2.8'","ang_deg_val(S(1,1)) [] - $eps1='13' $eps2='3.1'","ang_deg_val(S(1,1)) [] - $eps1='14' $eps2='3.6'"
0.1,-0.0997678461669573,-0.102609411400993,-0.102505728865252,-0.0995493788363576,-0.095897560962777,-0.092079557871206,-0.0909208672471301,-0.0906507550151451,-0.0898784603094993,-0.0895010261404198,-0.0892938297280054,-39.6479518770599,-39.3972851840712,-39.7311403541441,-39.3004126147897,-39.2276440784668,-39.2647347024547,-39.2552217236919,-39.4176270002967,-39.3002096556659,-39.1050682210442,-39.2929484050417
0.105675146771037,-0.105420889962446,-0.108591780381833,-0.108687676911652,-0.105634316678856,-0.101726214450162,-0.0974886242061027,-0.0962242547980419,-0.0958966976019004,-0.0950611900127551,-0.0946644378814242,-0.0944049212119319,-41.8417419286148,-41.5828512909096,-41.9363615774295,-41.4877048794977,-41.4149299846444,-41.4546577224082,-41.4449938495554,-41.6154643584303,-41.4916287599888,-41.2879197101808,-41.4815659845289
0.111350293542074,-0.111079066847022,-0.114601087149031,-0.114912277980232,-0.11177389770457,-0.107617192476148,-0.102937639714442,-0.101561624968141,-0.101169679789583,-0.100267914831279,-0.0998535688593923,-0.099531153928635,-44.0298110673545,-43.7637211538955,-44.1369986342166,-43.6713430590411,-43.5991274945627,-43.6415779145264,-43.6318257368393,-43.8101944990694,-43.6799547935386,-43.4680663634606,-43.666666336441
0.117025440313112,-0.116746406403084,-0.120643196478899,-0.121186311690038,-0.117975484942226,-0.113578792038911,-0.108434550994663,-0.106940824499656,-0.106476945762587,-0.105505688903375,-0.10507575951806,-0.104678075856675,-46.2121996726138,-45.9399906738949,-46.3331729304127,-45.8514904408435,-45.7804214785375,-45.8256875609329,-45.8159158325486,-46.0020112954116,-45.8653781763598,-45.6457157028197,-45.8484089218748
0.122700587084149,-0.122427813814226,-0.126725076165345,-0.127518045602213,-0.124248165177254,-0.119621138998844,-0.113989092461245,-0.112371551866278,-0.111827490121276,-0.110783317559871,-0.110340162064473,-0.109852611911951,-48.3889725288892,-48.1117805524747,-48.5250327890844,-48.0283378421043,-47.9590258768418,-48.00720920154,-47.9974932863545,-48.1911401656109,-48.0481201933152,-47.8211058523833,-48.0269829856397
0.128375733855186,-0.128129149401325,-0.13285491754927,-0.133917378189168,-0.130602924182053,-0.125756430566379,-0.119613057826809,-0.117865642922823,-0.117232339309746,-0.116111638565759,-0.115658032924307,-0.115063285432813,-50.5602209839728,-50.2792386539257,-50.7127557964539,-50.2021057747686,-50.1351856700444,-50.1863977393975,-50.1768199420133,-50.3778403031602,-50.2284350823878,-49.9945075690263,-50.2026099768299
0.134050880626223,-0.133857318006865,-0.139042269576347,-0.14039600053784,-0.137052835700933,-0.131999180513357,-0.12532058197118,-0.123437363887112,-0.122704849782479,-0.121503815396611,-0.121043034632223,-0.120320462346227,-52.7260649904931,-52.4425421937362,-52.8965509794956,-52.3730464207534,-52.3091785594168,-52.3635421875466,-52.3541919354736,-52.5624065606222,-52.4066117107891,-52.1662258448901,-52.3755457341779
0.13972602739726,-0.139620369185118,-0.145298187234242,-0.146967575014933,-0.14361326028384,-0.138366457538861,-0.13112842163054,-0.129103696243786,-0.128261011917351,-0.126975629471094,-0.12651153153639,-0.125636614711073,-54.8866550370124,-54.6018998357113,-55.0766608132959,-54.5414454285321,-54.4813163592396,-54.5389670459343,-54.5299408565768,-54.7451709332134,-54.5829748448743,-54.3366010554083,-54.5460824308009
0.145401174168297,-0.145427609382534,-0.151635395141636,-0.153647929310107,-0.150302049173927,-0.144878105144244,-0.137056218774552,-0.134884592644449,-0.133919743314052,-0.132545751930219,-0.132082857000188,-0.131026598012838,-57.0421740187878,-56.7575537022086,-57.2533631423332,-56.7076235730657,-56.6519461648172,-56.713033333372,-56.7044345010536,-56.9265036368964,-56.757885989212,-56.5060096669705,-56.7145502358328
0.151076320939335,-0.15128972740701,-0.158068467111477,-0.160455263669081,-0.157139747123135,-0.151556928956955,-0.143126725762959,-0.140803176401871,-0.139703148958973,-0.13823596912275,-0.137779522001178,-0.136507933205581,-59.1928390809613,-58.9097813239298,-59.4269729588617,-58.8719382941861,-58.8214513645715,-58.8861393073334,-58.8780772700326,-59.1068138150529,-58.9317438314471,-58.6748645178029,-58.8813187272137
0.156751467710372,-0.157218934595431,-0.164614022415538,-0.167410368963651,-0.164149787213904,-0.158428836450243,-0.149365966796687,-0.146885852086171,-0.145636719220296,-0.144071329089344,-0.143627328487733,-0.142101080324039,-61.338903439821,-61.0588975669558,-61.597844151596,-61.0347851765794,-60.9902525864045,-61.0587209715833,-61.0513103468797,-61.2865499393005,-61.1049843738098,-60.8436148294759,-61.0467980248296
0.162426614481409,-0.163229121293511,-0.171290939463267,-0.1745368525269,-0.171358670241183,-0.165522915040398,-0.155803308099889,-0.153162292646363,-0.151749431471466,-0.150080171956625,-0.149655346699924,-0.147829685826907,-63.4806582198536,-63.2052565373128,-63.7663711818971,-63.1965994265075,-63.1588087519205,-63.2312525351257,-63.2246118764053,-63.4662000038426,-63.2780809519417,-63.012746140569,-63.2114396654573
0.168101761252446,-0.169336031583971,-0.178120587236643,-0.181861368421905,-0.178796121795602,-0.172871438880191,-0.162471411148307,-0.15966527300374,-0.158073719673646,-0.156294007401468,-0.155895718320898,-0.1537207808705,-65.618434325869,-65.3492534992669,-65.9329907746834,-65.3578574519983,-65.3276184654024,-65.4042471133567,-65.3984975383539,-65.6462918446264,-65.451544458094,-65.1827805950754,-65.3757372860433
0.173776908023483,-0.175557457967608,-0.18512707479958,-0.189413848532058,-0.18649522203984,-0.180509804006193,-0.16940605258924,-0.166430335270732,-0.164645281752741,-0.162747212206954,-0.162383261816894,-0.159804904152253,-67.7526043564498,-67.4913268128363,-68.0981836463224,-67.5190786511569,-67.4972220192935,-67.5782580572749,-67.5735220314259,-67.8273939330852,-67.625924252386,-67.3542781354325,-67.5402272440222
0.179452054794521,-0.181913458353686,-0.192337518762799,-0.197227731411645,-0.194492507497255,-0.188476406614833,-0.176645814544213,-0.17349530110076,-0.1715027120191,-0.169476544844152,-0.169154888113891,-0.166116121793181,-69.8835845895811,-69.6319599250392,-70.2624763579287,-69.6808276055231,-69.6682043710616,-69.7538814624455,-69.7502822060147,-70.010117291097,-69.8018104676456,-69.5278394332778,-69.7054893801195
0.185127201565558,-0.188426597426779,-0.199782328581644,-0.205340186811051,-0.202828050781883,-0.196812500963322,-0.184231681778868,-0.180899694951302,-0.178686979188259,-0.176520516871191,-0.176248888525789,-0.172691920988853,-72.0118370614339,-71.7716834464828,-72.4264433653174,-71.8437168418198,-71.841199464583,-71.9317604776073,-71.9294225946889,-72.1951192362198,-71.9798385290449,-71.7041114459559,-71.8721482635115
0.190802348336595,-0.195122214763722,-0.207495509337713,-0.213792336349525,-0.21154553440171,-0.205562099789204,-0.19220662873785,-0.188684207092582,-0.186240823261282,-0.183918724757838,-0.183704233132092,-0.179572966559282,-74.13787174432,-73.9110773335035,-74.5907093979512,-74.0084104137456,-74.01689622415,-74.1125920528821,-74.111644119114,-74.3831098399938,-74.160696772065,-73.8837965494988,-74.0408753947694
0.196477495107632,-0.202028722177685,-0.215514981965242,-0.222629474657413,-0.220692347211465,-0.214772007992575,-0.200615334701962,-0.196890397353078,-0.194208214593084,-0.191711325123927,-0.19156010686022,-0.18680273340148,-76.2622488548109,-76.0507732495696,-76.7559522912725,-76.1756285063867,-76.196046438844,-76.2971366352533,-76.2977164052595,-76.5748618624773,-76.3451378775778,-76.0676658541029,-76.2123929649621
0.202152641878669,-0.209177932804545,-0.223882921457264,-0.231901301022497,-0.230319747397449,-0.22449210281319,-0.209504218153251,-0.205560899969164,-0.202634096000274,-0.199938915667498,-0.199855990061148,-0.1944270657413,-78.3855813155589,-78.1914571442767,-78.9229064383586,-78.3461532875923,-78.3794745462583,-78.4862309737269,-78.4884936071543,-78.7712246643453,-78.5339943695565,-78.2565766954657,-78.3874798614949
0.207827788649706,-0.216605424607391,-0.232646114814448,-0.241662179402205,-0.240483150532277,-0.234775981823938,-0.21892201281216,-0.214740405843797,-0.211564691998068,-0.208643134006862,-0.20863262212738,-0.202493765819951,-80.5085373903108,-80.3338721436799,-81.0923670374237,-80.5208361148525,-80.568088977479,-80.6808036045523,-80.6849326975318,-80.9731419013368,-80.7281975725212,-80.4514931976897,-80.5669806176835
0.213502935420744,-0.22435094118713,-0.24185634256618,-0.251971454049074,-0.251242613665629,-0.245682084761383,-0.228921094179056,-0.224477638151639,-0.221048685974265,-0.217868268035903,-0.217934126492485,-0.211052375100243,-82.6318435315565,-82.4788218442092,-83.2651953043111,-82.700606134231,-82.7628943958401,-82.8818918503292,-82.888112221954,-83.1816719090577,-82.9287982980893,-82.6535075617305,-82.7518178216116
0.219178082191781,-0.232458833098895,-0.251570790812394,-0.262893858855709,-0.26266359182757,-0.257275350256495,-0.239559686208016,-0.234828380447853,-0.231139500479265,-0.22766404974299,-0.227811392028017,-0.220154368423295,-84.7562874708845,-84.6271741224393,-85.4423248089736,-84.8864801158126,-84.9650038122035,-85.0906584183445,-85.0992486110659,-85.3980085327788,-85.1369863971126,-84.8638585554105,-84.9430081132514
0.224853228962818,-0.240978543284112,-0.261852505207777,-0.274500069309048,-0.274818038323847,-0.269629395622182,-0.25090492926312,-0.245859377650564,-0.241898746925027,-0.238089571245312,-0.238326510025296,-0.229854015353354,-86.8827216104613,-86.7798656055264,-87.6247690467745,-87.0795731968552,-87.1756493689088,-87.3084051641625,-87.3197069061674,-87.6234992583922,-87.3541055670648,-87.0839432596871,-87.1416812435017
0.230528375733855,-0.249965141223841,-0.272770904113224,-0.286867455234435,-0.287785901897087,-0.28282911872685,-0.263036595648693,-0.257652666882536,-0.253400652322833,-0.249217957901838,-0.249557728425328,-0.240210148069171,-89.0120667623844,-88.9379069430484,-89.8136302744422,-89.2811100360936,-89.3961906729343,-89.5365816791034,-89.5510034225841,-89.8596571778754,-89.5816600090923,-89.3153188845914,-89.3491008477583
0.236203522504892,-0.259479911434563,-0.284402375608496,-0.300081098239311,-0.301657042055256,-0.296973537498238,-0.276051050802138,-0.270309699834969,-0.265736983916984,-0.261141150544824,-0.261604126440095,-0.251288989433697,-91.1453163161786,-91.102389050375,-92.0101095500255,-91.4924357391796,-91.6281199182823,-91.7767871394774,-91.7947995530455,-92.1081640478539,-91.8213109028282,-91.5596935085065,-91.5666847191685
0.24187866927593,-0.269591003898994,-0.296830991695998,-0.314235137572112,-0.316533542304114,-0.31217863053577,-0.290064943661147,-0.283954578056751,-0.27902177542838,-0.273974001027526,-0.274589151803388,-0.263168031742463,-93.2835409216404,-93.2744904716234,-94.2155177903343,-93.7150259156355,-93.8730636997057,-94.0307653269867,-94.0528882008523,-94.3708634803427,-94.0748630653296,-93.8189075184647,-93.796021785111
0.247553816046967,-0.280374156596797,-0.310149382692335,-0.329434500661702,-0.332532357299699,-0.328579942031609,-0.305218121734775,-0.298735874020494,-0.293395105781882,-0.287856951552893,-0.2886623509846,-0.275940738234548,-95.4278937915716,-95.4554860066012,-96.4312875417344,-95.950495326958,-96.1327822447732,-96.3003945158837,-96.3271765975553,-96.6497457854118,-96.3442449282218,-96.0949103866911,-96.0388829943696
0.253228962818004,-0.291913503995814,-0.32445982468347,-0.345797059118305,-0.349788194418712,-0.346334772862932,-0.321675416503075,-0.314826816458225,-0.309025334028049,-0.30295684595012,-0.303999007882182,-0.289721619521037,-97.5796167541422,-97.6467567084915,-98.6589850658242,-98.2006048544641,-98.4091675348627,-98.5876755397057,-98.619670721066,-98.9469284658296,-98.6314871844362,-98.3897392509363,-98.2972241110155
0.258904109589041,-0.304302490279386,-0.339875601973655,-0.36345622890541,-0.368456513616926,-0.365623887000235,-0.339627195616393,-0.332423986819865,-0.326109515323441,-0.319465824165889,-0.320797863700741,-0.304651087844594,-99.7400472119124,-99.8498013073528,-100.900322289535,-100.467266889123,-100.704242369121,-100.894722306722,-100.932466913188,-101.264638044912,-100.938706512271,-100.705506195642,-100.573179985545
0.264579256360078,-0.317644912621331,-0.356522713585864,-0.382564008036888,-0.388716538882007,-0.386652796300686,-0.359288863485892,-0.351745010974249,-0.344872116633513,-0.337598660985542,-0.33927749745407,-0.320899474933999,-101.910626164401,-102.06624902633,-103.157168207292,-102.752549681029,-103.020162611735,-103.22375917768,-103.26775561475,-103.605199435215,-103.268100557233,-103.044400240801,-102.869051910766
0.270254403131115,-0.332056128023902,-0.374541996768093,-0.40329442174735,-0.410774212508633,-0.409652821925841,-0.380899749444316,-0.373025984994964,-0.365562518792744,-0.357589242923519,-0.359672246183608,-0.338669734607264,-104.09290749688,-104.297873701216,-105.431559416669,-105.058681586675,-105.359224759471,-105.577129024416,-105.627840778335,-105.971038475716,-105.62195916793,-105.408708455091,-105.187291561954
0.275929549902153,-0.347664467412323,-0.394091740119103,-0.425847329596264,-0.434865085619881,-0.434882248312259,-0.404722020214091,-0.396519543614835,-0.388452081096022,-0.379687115242233,-0.382228750348129,-0.358198606768267,-106.288568730031,-106.546608995087,-107.725709692894,-107.38805646356,-107.72388054133,-107.957314702713,-108.015176874127,-108.364702014192,-108.002695258362,-107.800858705472,-107.530486393308
0.28160469667319,-0.364612912773722,-0.415350854262768,-0.450452547186278,-0.461257216801255,-0.462627976350933,-0.431040387936719,-0.422494582589252,-0.413831757739723,-0.404155200520764,-0.407204358262446,-0.379756328246432,-108.49942343236,-108.814564440856,-110.042018737041,-109.743241619871,-110.116759668915,-110.366975309353,-110.432423526465,-110.788898276029,-110.412896815995,-110.223484415356,-109.901351839839
0.287279843444227,-0.383061107002125,-0.438522659120707,-0.477374250805382,-0.49025423610165,-0.493208144558696,-0.46016346428312,-0.45123868345258,-0.442011415137181,-0.431269911377176,-0.434868714886932,-0.403645273318963,-110.72743549492,-111.1040419823,-112.383080540024,-112.126989725311,-112.540701112681,-112.808997097336,-112.882515699016,-113.246558404467,-112.855399409678,-112.679509130867,-112.302735432688
0.292954990215264,-0.403187781477797,-0.463839336031239,-0.506915667520288,-0.522198816150424,-0.52697622000049,-0.492427633268485,-0.483064230728508,-0.473322108836791,-0.461324929855064,-0.465509840184845,-0.43019816110131,-112.974735432864,-113.417552673568,-114.751692058647,-114.542255925551,-114.99879250204,-115.286557205902,-115.368744969878,-115.740917769799,-115.333375878491,-115.172245466049,-114.737637163986
0.298630136986301,-0.425193702747435,-0.491567082639149,-0.539424104561171,-0.557476870777211,-0.564327062411333,-0.528204259574734,-0.518319004844324,-0.508122599083342,-0.494639836845544,-0.499445776070892,-0.459776683066561,-115.243638828842,-115.757833237174,-117.150863110916,-116.992221120546,-117.494416378938,-117.80319650888,-117.894844869887,-118.27561286101,-117.850436672732,-117.705499328086,-117.209249403822
0.304305283757339,-0.449305256054017,-0.522012002568823,-0.575296436831531,-0.596522871780036,-0.605705429470486,-0.567910884418839,-0.557401630960823,-0.546811243349495,-0.531574457743267,-0.537042350939966,-0.49277160116287,-117.53666698241,-118.127862271446,-119.583828521987,-119.480321956095,-120.03130119444,-120.362896040448,-120.465071105592,-120.854786301122,-120.410730861067,-120.283666787281,-119.721018348046
0.309980430528376,-0.475778799431926,-0.555526764210734,-0.614985246215592,-0.639826734307338,-0.651617313776499,-0.612026763795513,-0.600781657080642,-0.589844022203064,-0.572549171570213,-0.578736726670448,-0.529605548176643,-119.856569718929,-120.53087604133,-122.054063572703,-122.010287592183,-122.613574185682,-122.970149922933,-123.084266472197,-123.483189274581,-123.01903499188,-122.911808919491,-122.276727239756
0.315655577299413,-0.504905936537251,-0.592518076952024,-0.659005887863382,-0.687942768256125,-0.70264438345121,-0.661112680261105,-0.649023302551757,-0.63775878094639,-0.618070506992752,-0.625065236822344,-0.570739897109594,-122.206350228813,-122.970383959831,-124.565303708116,-124.586182718377,-125.245812746492,-125.630027116379,-125.757901427615,-126.166268333552,-125.680816096462,-125.595691122479,-124.880599252992
0.32133072407045,-0.537019869096953,-0.633455061379531,-0.707944844532775,-0.741501223008768,-0.759461651951752,-0.715834469649623,-0.702811259197248,-0.691204839181862,-0.668760267308426,-0.676692904828879,-0.616687094340979,-124.589291686996,-125.45018405042,-127.121569282702,-127.212455634016,-127.933090778974,-128.348215143818,-128.492085422042,-128.910223503816,-128.402257828197,-128.341779530165,-127.537414880525
0.327005870841487,-0.57250300099793,-0.678878633661168,-0.762469819306919,-0.801222961681846,-0.822858357045086,-0.776989277319867,-0.762976647211765,-0.750976124956548,-0.725385549676369,-0.73444149396583,-0.668029693623864,-127.008985285042,-127.974378846635,-129.727195801731,-129.893989532321,-130.681016931924,-131.131041719215,-131.293551013182,-131.72202830218,-131.190246123397,-131.157198327721,-130.252635166821
0.332681017612524,-0.611795976052716,-0.729412083655194,-0.823342108169455,-0.867937786169515,-0.893761928746206,-0.845533377820327,-0.830521618439596,-0.818045312651904,-0.78888687424116,-0.799313559826357,-0.725446907988639,-129.469359220776,-130.547392318032,-132.386869704027,-132.636154474673,-133.495762620452,-133.985474708898,-134.169620811347,-134.609410306044,-134.05232211272,-134.049665196249,-133.032518714013
0.338356164383562,-0.655408342534245,-0.785773100999885,-0.891431885003447,-0.942606897555632,-0.973264921352832,-0.922610628972365,-0.906642235523191,-0.893596558745997,-0.860402637592209,-0.872511922205035,-0.789748770729526,-131.974708094436,-133.173988478195,-135.105669183618,-135.444857011802,-136.384079206462,-136.91910614578,-137.128173351764,-137.580801975983,-136.996621706661,-137.027431881087,-135.88421805258
0.344031311154599,-0.703931051542278,-0.84878759301256,-0.967737119371588,-1.02634992654979,-1.06265491700123,-1.00958134126027,-0.992750836825433,-0.979055635482172,-0.941290189520533,-0.955456650059516,-0.861917010574892,-134.529722112035,-135.859292336052,-137.889108875584,-138.326584108277,-139.35330534898,-139.940130306852,-140.177624922205,-140.645281688044,-140.031827768171,-140.099257019741,-138.815841159998
