Freq [GHz],"dB(S(1,1)) [] - $eps1='1' $eps2='0'","dB(S(1,1)) [] - $eps1='2' $eps2='0.1'","dB(S(1,1)) [] - $eps1='3' $eps2='0.2'","dB(S(1,1)) [] - $eps1='4' $eps2='0.3'","dB(S(1,1)) [] - $eps1='5' $eps2='0.6'","dB(S(1,1)) [] - $eps1='6' $eps2='0.9'","dB(S(1,1)) [] - $eps1='7' $eps2='1.1'","dB(S(1,1)) [] - $eps1='8' $eps2='1.4'","dB(S(1,1)) [] - $eps1='9' $eps2='1.8'","arg(S(1,1)) [deg] - $eps1='1' $eps2='0'","arg(S(1,1)) [deg] - $eps1='2' $eps2='0.1'","arg(S(1,1)) [deg] - $eps1='3' $eps2='0.2'","arg(S(1,1)) [deg] - $eps1='4' $eps2='0.3'","arg(S(1,1)) [deg] - $eps1='5' $eps2='0.6'","arg(S(1,1)) [deg] - $eps1='6' $eps2='0.9'","arg(S(1,1)) [deg] - $eps1='7' $eps2='1.1'","arg(S(1,1)) [deg] - $eps1='8' $eps2='1.4'","arg(S(1,1)) [deg] - $eps1='9' $eps2='1.8'"
0.1,-0.10202123674215,-0.107507777071167,-0.109476195845847,-0.110115995202459,-0.11284644891779,-0.110505447533411,-0.110408249319127,-0.105175070708664,-0.101944902327671,-44.2304923252751,-45.0565726505376,-45.4009375145156,-45.5433046480301,-45.5848282324361,-45.2821268236964,-45.8201599955008,-45.2299659162093,-45.1364217776475
0.105675146771037,-0.107413379608073,-0.113141167875061,-0.115163957253445,-0.115826779164777,-0.118823819809324,-0.11658028805923,-0.116514935133067,-0.110991737784642,-0.107411661246093,-46.6312520215263,-47.4987755440626,-47.8601490262085,-48.0122625256372,-48.059646283579,-47.7490591146089,-48.3125053205406,-47.6988810627533,-47.6034249548225
0.111350293542074,-0.112729962391829,-0.118689975727294,-0.120765663289611,-0.121459313587837,-0.124746762049836,-0.122630136924996,-0.122611416699781,-0.116818277487829,-0.112873029386175,-49.018292756294,-49.9267313379523,-50.304929698164,-50.4671366869584,-50.5210102155147,-50.203816037174,-50.7919429692736,-50.1562279863954,-50.0593730855678
0.117025440313112,-0.117969277504601,-0.124153546258472,-0.126282971676353,-0.127017911982399,-0.130623079728222,-0.128665252736841,-0.128710628108442,-0.122670253556081,-0.118345445766933,-51.3913719630997,-52.3402230207449,-52.7350880563686,-52.9077588973914,-52.9687789667586,-52.6462909252515,-53.2583554069628,-52.6019084542304,-52.5041871752408
0.122700587084149,-0.123130349528356,-0.12953225444889,-0.131718880482706,-0.132508367676312,-0.136462265153467,-0.134698025019783,-0.134827986361806,-0.128566157313189,-0.123848567736873,-53.7502824601773,-54.7390730646766,-55.1504746198872,-55.3340036406074,-55.4028519565652,-55.0764124986291,-55.7116625459132,-55.0358564631259,-54.9378196752281
0.128375733855186,-0.128212859668151,-0.134827473659318,-0.137077660809707,-0.137937976544953,-0.142275647613716,-0.140743041749789,-0.140981639431986,-0.134527541390891,-0.129405584692261,-56.0948535302658,-57.1231446925423,-57.5509831017229,-57.7457879183872,-57.8231699116236,-57.4941465315371,-58.15182092322,-57.4580353046727,-57.3602520828448
0.134050880626223,-0.133217271350482,-0.140041592767899,-0.142364942278226,-0.143315558666031,-0.148076386552589,-0.14681715151622,-0.14719233303799,-0.140578928427752,-0.135043371868884,-58.4249514876775,-59.4923424163367,-59.9365510991508,-60.1430732029121,-60.2297156054623,-59.8994949048757,-60.5788224431215,-59.8684346495043,-59.7714904026746
0.13972602739726,-0.138144744768362,-0.145178054910545,-0.14758762971879,-0.148651540510915,-0.153879587624682,-0.152939475628046,-0.153483468464435,-0.146747783378766,-0.140792489190798,-60.7404800110259,-61.8466121679128,-62.3071604459674,-62.5258651166785,-62.622514078305,-62.2924952603094,-62.9926910815996,-62.2670653661568,-62.1715589946635
0.145401174168297,-0.14299717993518,-0.150241352799261,-0.152753984723129,-0.153957912469228,-0.159702301937034,-0.159131436874733,-0.159880810162007,-0.153063911508705,-0.146686914680482,-63.0413803179072,-64.1859419548735,-64.6628374503532,-64.8942139099989,-65.0016321757499,-64.6732195561328,-65.393480539475,-64.6539527850128,-64.5604922283507
0.151076320939335,-0.147777184572071,-0.155237011963027,-0.157873656985174,-0.159248401130309,-0.165563649974448,-0.165416690041391,-0.166412149791459,-0.15955854411794,-0.152763257698104,-65.3276316359909,-66.5103616196655,-67.0036530020591,-67.24821426198,-67.3671779439858,-67.0417726311469,-67.7812701552869,-67.0291306283656,-66.9383235631374
0.156751467710372,-0.152488119632491,-0.160171651516245,-0.16295765028105,-0.164538434336653,-0.171484794382828,-0.171820916133366,-0.173106582055397,-0.166262848000142,-0.159059111137862,-67.5992506526545,-68.8199429220023,-69.3297221655357,-69.5880055757513,-69.7192999168853,-69.3982895019463,-70.1561603480244,-69.3926328035682,-69.3050736782533
0.162426614481409,-0.15713406775279,-0.165052960804015,-0.168018466491853,-0.16984521462682,-0.177488967929455,-0.178371561889301,-0.17999354696239,-0.17320556416497,-0.165610487249679,-69.8562915382917,-71.1147992300323,-71.6412048077805,-71.9137709276324,-72.0581857935404,-71.7429337272001,-72.5182690539747,-71.7444880075926,-71.6607378246809
0.168101761252446,-0.16171986709339,-0.169889743191124,-0.173070020420924,-0.175187810167602,-0.18360140282709,-0.185097345442958,-0.187101384782212,-0.180409758562022,-0.172447525138808,-72.098845606404,-73.3950854386685,-73.9383046331696,-74.2257370204719,-74.3840611091908,-74.0758944190812,-74.8677285896183,-74.0847175800741,-74.0052755252648
0.173776908023483,-0.166251090665397,-0.174691901840035,-0.178127812764661,-0.180587248301313,-0.189849251218577,-0.1920276091256,-0.194455411048289,-0.187888623238381,-0.17958858124878,-74.3270414818148,-75.6609974693769,-76.2212689707575,-76.524173104561,-76.6971875728762,-76.3973839253986,-77.2046851339738,-76.4133408408295,-76.3386089615531
0.179452054794521,-0.170734074977275,-0.179470534591402,-0.183208902125205,-0.186066448939533,-0.196261389013909,-0.199191318072774,-0.202075559684409,-0.195640526761782,-0.187032437601264,-76.5410438374989,-77.912772230233,-78.4903885900036,-78.8093905774928,-78.9978614043764,-78.7076369726886,-79.5293016534918,-78.7303925853552,-78.6606359041339
0.185127201565558,-0.175175901265375,-0.184237907653778,-0.188332002221369,-0.19165040507285,-0.202868120050549,-0.206615946361641,-0.209973632913096,-0.203644277010641,-0.194749335709715,-78.741053786453,-80.1506872080926,-80.7459974050727,-81.0817418299523,-81.2864118263677,-81.0069101624415,-81.8417676189223,-81.035958355287,-80.9712700035509
0.190802348336595,-0.179584478125716,-0.189007534886665,-0.193517591671442,-0.197366138698178,-0.209700825077855,-0.214325924153566,-0.218150527442404,-0.211855292999294,-0.202672828432103,-80.9273080860016,-82.3750600802179,-82.9884716682203,-83.341619458863,-83.5631996585252,-83.2954849134986,-84.1423169554754,-83.3302291030809,-83.2705169589219
0.196477495107632,-0.183968472030178,-0.193794232532219,-0.198787924843006,-0.203242698481009,-0.216791385986971,-0.222341026924652,-0.226593832415583,-0.220205377226349,-0.210695750428249,-83.1000788993523,-84.5862485469514,-85.2182301678114,-85.5894551057681,-85.8286167282434,-85.5736732501853,-86.4312558156381,-85.6135776730187,-85.5585931756824
0.202152641878669,-0.188337403601939,-0.198614139761766,-0.204167169609536,-0.209311194803407,-0.224171524178389,-0.230674599809142,-0.235276677873302,-0.228607364565963,-0.21867459287274,-85.2596734413387,-86.7846503308749,-87.4357332676206,-87.8257187772017,-88.083085815216,-87.8418288514611,-88.7090018750368,-87.8866457172322,-87.8360773009143
0.207827788649706,-0.19270163206743,-0.203484869293246,-0.209681528450505,-0.215604660614658,-0.231871992310387,-0.239331986496874,-0.244158613111515,-0.236966446530439,-0.226446636220078,-87.4064336262613,-88.970702470058,-89.6414830954552,-90.0509176610802,-90.3270625702476,-90.1003637508421,-90.9761325369679,-90.1504245494487,-90.1040628009612
0.213502935420744,-0.197072428794206,-0.208425518810201,-0.2153592763458,-0.222157967642956,-0.239921614351814,-0.248309454516575,-0.253189470883248,-0.245197939587358,-0.233860412977095,-89.5407358627786,-91.1448820819769,-91.8360233005797,-92.2655960536198,-92.5610389891112,-92.3497715499595,-93.2334369202443,-92.4063058087867,-92.3642594139503
0.219178082191781,-0.201461982509451,-0.213456807805458,-0.221230888198688,-0.229007645415626,-0.248346301974061,-0.257594089314425,-0.262316585744522,-0.253248525489843,-0.240814375627314,-91.6629907335239,-93.3077057475494,-94.019938808738,-94.4703344636126,-94.7855497083533,-94.5906572311557,-95.4819633912957,-94.6560781498857,-94.6189884492591
0.224853228962818,-0.205883472061752,-0.218601176320328,-0.227329171618158,-0.236191629949909,-0.257168072448545,-0.267165113007202,-0.271495419883083,-0.261116626539899,-0.247293044709006,-93.7736432294675,-95.4597301460781,-96.1938559382768,-96.6657504203748,-97.0011816905339,-96.8237714520805,-97.7230512997652,-96.9018608927728,-96.8710449942934
0.230528375733855,-0.210351126837397,-0.223882926908572,-0.233689354494804,-0.243748944062756,-0.266404267797878,-0.276997080369684,-0.280702192343339,-0.268866513654044,-0.253388635794571,-95.8731723829925,-97.6015522313933,-98.3584429337817,-98.8524991172727,-99.2085875492874,-99.0500466024495,-99.9583372644418,-99.1459848546752,-99.1234570015601
0.236203522504892,-0.214880291333188,-0.229328363509399,-0.24034922141886,-0.251719284699406,-0.276067123191971,-0.287065153293022,-0.289946817771667,-0.276633190855483,-0.259301733314964,-97.9620916705791,-99.7338096314759,-100.514409979545,-101.031275641158,-101.408503213761,-101.270629990223,-102.18973000171,-101.390851318109,-101.37921698567
0.24187866927593,-0.219487490795983,-0.234965961374178,-0.247349176919407,-0.260142621587301,-0.28616398893533,-0.297352412254903,-0.299283862283342,-0.284618286165417,-0.265323825341194,-100.040949136651,-101.857181639957,-102.662510481364,-103.202818317374,-103.601769698396,-103.486907810747,-104.419356131831,-103.638803048406,-103.641071738299
0.247553816046967,-0.224190554542807,-0.240826538199953,-0.254732407705777,-0.269058669681468,-0.296698401774308,-0.307858612375818,-0.308819782563949,-0.293079949956341,-0.27181162502559,-102.110327840329,-103.972389712495,-104.803541884149,-105.367913967975,-105.789357950952,-105.700515705218,-106.649485471599,-105.892034981085,-105.911418701753
0.253228962818004,-0.229008689344284,-0.246943496490473,-0.262544971759733,-0.278506444648882,-0.30767230810798,-0.318609588422562,-0.3187156838116,-0.302321643507949,-0.27916437394148,-104.170846466381,-106.080199076007,-106.938347514272,-107.527405127056,-107.972395870798,-107.913331032459,-108.882451232849,-108.152550161717,-108.192303944268
0.258904109589041,-0.233962626378054,-0.253353018122317,-0.27083592920011,-0.288523894684818,-0.319089600581452,-0.329666117855775,-0.329186239348528,-0.31268340495651,-0.287811448406746,-106.223159884721,-108.181419591948,-109.067818588274,-109.682200019826,-110.152194998758,-110.127447821942,-111.120577320301,-110.422151253835,-110.485479077499
0.264579256360078,-0.239074729514135,-0.260094383305467,-0.279657454376024,-0.29914768106945,-0.330961039226751,-0.341131367742477,-0.34049620250511,-0.324537678619649,-0.298212255663649,-108.267960319862,-110.276907778624,-111.192897273249,-111.833285385216,-112.330273975809,-112.345136041,-113.36612288614,-112.702445213728,-112.792461619014
0.270254403131115,-0.244369183405928,-0.267210228587059,-0.289064985309936,-0.310413309881389,-0.343310428073237,-0.353156123544133,-0.35295642334964,-0.338289730940352,-0.310866228190122,-110.305978331476,-112.367568623847,-113.314580351717,-113.981742449631,-114.508376301672,-114.568792064916,-115.621244639876,-114.99483840339,-115.114551641729
0.275929549902153,-0.249872142802349,-0.274746902538764,-0.299117418506829,-0.322355690111604,-0.356181808830934,-0.365941820092994,-0.366920842511409,-0.354380831156385,-0.326328718844274,-112.337984201259,-114.454357971491,-115.433923914079,-116.128766162351,-116.688479083331,-116.800886528704,-117.887971486855,-117.300501565769,-117.452769298161
0.28160469667319,-0.255611954689931,-0.282754855362829,-0.30987734927717,-0.335010371386253,-0.369647166574727,-0.379741691169281,-0.382785243985534,-0.373291295754688,-0.345226992133697,-114.364789588297,-116.5382852259,-117.552049380985,-118.275687350179,-118.872791690077,-119.043915713501,-120.168181938232,-119.620290071306,-119.807684837576
0.287279843444227,-0.261619368629049,-0.291289068803363,-0.321411383199434,-0.348415554160728,-0.38381422023005,-0.394860875394784,-0.400987633096163,-0.395539211083776,-0.368268541569528,-116.387249361682,-118.620416486298,-119.670150832863,-120.423997208869,-121.063743189156,-121.300359445392,-122.463572360175,-121.95461045663,-122.179115968169
0.292954990215264,-0.267927804779447,-0.300409540413253,-0.333790597514771,-0.362615124284377,-0.398833738611887,-0.41165626466545,-0.422009095373915,-0.421669211139243,-0.396229466339431,-118.406263853123,-120.701878294907,-121.789504052557,-122.575373190987,-123.263960244582,-123.572645207936,-124.775605384594,-124.303234266518,-124.565671606245
0.298630136986301,-0.274573645184034,-0.310181853731184,-0.347091178040434,-0.377662795779099,-0.414906102414422,-0.430536779166103,-0.44637313653051,-0.452223904357887,-0.42990303308232,-120.422781301056,-122.783861800779,-123.911477259464,-124.731704848214,-125.476237187954,-125.863114918903,-127.105430493532,-126.665075977417,-126.964148479863
0.304305283757339,-0.281596563993027,-0.320677814079766,-0.36139530616752,-0.393627430742002,-0.432286948953193,-0.451964282257885,-0.474640567269899,-0.487689206186089,-0.469978487931864,-122.437800673594,-124.867627635429,-126.037543990715,-126.895117969212,-127.703501089628,-128.173988347867,-129.453773476606,-129.037983219501,-129.368865844508
0.309980430528376,-0.289039896590423,-0.331976186811265,-0.376792364982061,-0.410599580383387,-0.451292041899057,-0.476454799225582,-0.507395979125646,-0.528405744577147,-0.516814012356066,-124.452375035061,-126.95451151516,-128.169298074854,-129.067995201113,-129.948774419002,-130.507316725963,-131.820800044026,-131.418639388556,-131.771207904848
0.315655577299413,-0.2969510846705,-0.34416354503867,-0.393380591479729,-0.428699112954905,-0.472301612278164,-0.504579078267725,-0.545221179146552,-0.57444548646929,-0.570083849913068,-126.467615088498,-129.04593066942,-130.308470765445,-131.252991382944,-132.215136419352,-132.864919788494,-134.205972173208,-133.802747493152,-134.15996135715
0.32133072407045,-0.305382137056666,-0.357335255211711,-0.411269262153662,-0.448083802590717,-0.495764505324282,-0.536960844479504,-0.588650763220985,-0.625470661975503,-0.628352819437256,-128.484693409264,-131.143391179228,-132.456950158255,-133.453042183253,-134.505682967643,-135.248302675338,-136.607937896047,-136.185723192641,-136.523390949854
0.327005870841487,-0.314390199549631,-0.371596623224763,-0.430581547174176,-0.468958693873735,-0.522202414176982,-0.574270370509449,-0.638106884727006,-0.680623163696828,-0.688790005561356,-130.504849042819,-133.248496280542,-134.616802535685,-135.671364958895,-136.823482894172,-137.658552604881,-139.024525063605,-138.564098468558,-138.853926386071
0.332681017612524,-0.324038174102391,-0.387064235732307,-0.45145817965164,-0.491586040581652,-0.552214204476404,-0.617210401994434,-0.693815544834058,-0.738526763065355,-0.747410319071291,-132.529392740904,-135.362955988049,-136.790295391935,-137.911451353861,-139.171527263841,-140.096223400481,-141.45294298731,-140.937618354541,-141.154996387296
0.338356164383562,-0.33439543960718,-0.403867552497305,-0.474062077067358,-0.516295628444838,-0.586480013287882,-0.666491104555399,-0.75571723407446,-0.79749112451607,-0.80016429420601,-134.559712849336,-137.488597890451,-138.97992169487,-140.1770516338,-141.55266699127,-142.561227220519,-143.890315626455,-143.311549605093,-143.446730693301
0.344031311154599,-0.345538666264584,-0.422150771985514,-0.49858405764205,-0.543495467997392,-0.625764269282847,-0.722791187861333,-0.823400275317755,-0.855944863980764,-0.844615614145738,-136.597281840413,-139.627379590274,-141.188424608455,-142.472150487658,-143.96953475023,-145.052769618956,-146.334643439442,-145.698208998294,-145.765386935192
0.349706457925636,-0.357552754639722,-0.442075061952505,-0.525249816921892,-0.573682769579467,-0.670916260796579,-0.786704260804896,-0.896100753086171,-0.912993535445942,-0.881208921231429,-138.643663668301,-141.781402532619,-143.418821715327,-144.800934535976,-146.424448475502,-147.569384707291,-148.786178930106,-148.116647475302,-148.154540460966
0.355381604696673,-0.370531912558063,-0.463821218878917,-0.554328277230566,-0.607455263658338,-0.722866210186367,-0.858673884143209,-0.972816740479196,-0.968882503734896,-0.913234518841953,-140.70052196824,-143.952927792395,-145.674427719388,-147.167750472821,-148.919297678201,-150.109146316782,-151.248989962857,-150.590187446251,-150.653148523902
0.36105675146771,-0.384580882801957,-0.487592860522323,-0.58614145916388,-0.645522871037962,-0.782614331825516,-0.938928175616238,-1.05256185745463,-1.02516540953536,-0.945693947465254,-142.769629242255,-146.144393684633,-147.958874179079,-149.577052179705,-151.455420700711,-152.670138282384,-153.732240617384,-153.142741524583,-153.288251906737
0.366731898238748,-0.399816368971042,-0.513620246845052,-0.621075987857003,-0.688719585357974,-0.851210103768695,-1.02743475629626,-1.13472983629792,-1.08454908011332,-0.984061768433563,-144.852877105903,-148.358435381188,-150.276124672997,-152.033334199745,-154.033491305764,-155.251242808045,-156.250606297917,-155.795512430203,-156.074877990807
0.372407045009785,-0.416368670303192,-0.542164900006339,-0.659596310442179,-0.738015195214696,-0.9297195153875,-1.12390613265812,-1.21947969656723,-1.15056348824983,-1.03363111925892,-146.952287746279,-150.597906668658,-152.630483631185,-154.541047838219,-156.653447742109,-157.853232483343,-158.823431819112,-158.565194057993,-159.019860817986
0.378082191780822,-0.434383576154104,-0.573525151275896,-0.702259724197511,-0.79452603256789,-1.01917985104899,-1.22788822182307,-1.30802373115049,-1.22724991031978,-1.09944401607229,-149.070026755028,-152.865903579658,-155.026596471422,-157.104496449495,-159.314514709668,-160.480023302542,-161.472731079837,-161.463707080731,-162.125597349761
0.383757338551859,-0.454024561889279,-0.608042859185532,-0.749733216552691,-0.859523411122748,-1.12054537802715,-1.33895325977192,-1.40273790574012,-1.31897850830404,-1.18651504088158,-151.208417418181,-155.165790080114,-157.469438652709,-159.72770755486,-162.015384728575,-163.139795687964,-164.220636691692,-164.49875491127,-165.392050542181
0.389432485322896,-0.475475332969313,-0.646111483792121,-0.80281208125804,-0.934437748454236,-1.23463354450019,-1.45698980268852,-1.50709738526306,-1.43040064001478,-1.30012027305542,-153.369956758513,-157.501225261973,-159.964290584105,-162.414283334637,-164.754631299877,-165.84559407534,-167.087078653281,-167.674414411398,-168.81698202799
0.395107632093933,-0.498942793759071,-0.688185830267883,-0.862440158346307,-1.02085581266002,-1.36208959981078,-1.5825446708314,-1.62551167945712,-1.56648133976188,-1.44603842411657,-155.557333423056,-159.876191428529,-162.516694980068,-165.167238087554,-167.531409088566,-168.615063939811,-170.088199295131,-170.991285875774,-172.394779925221
0.400782778864971,-0.524660505589395,-0.734793754942131,-0.929731345259235,-1.12050828240363,-1.50339590398044,-1.71714358359275,-1.76315067910713,-1.73254428257104,-1.63067496229357,-157.773447706692,-162.295022349488,-165.13239290899,-167.988842819689,-170.346441186281,-171.469209628249,-173.235535724536,-174.446058388791,-176.114125352264
0.406457925636008,-0.552892734935574,-0.786550187807119,-1.0059917679568,-1.23524538136676,-1.65895651669053,-1.86351828094988,-1.92581811106151,-1.93426850958362,-1.86098455494852,-160.021433929865,-164.762430176629,-167.817235008786,-170.88051386306,-173.203194450881,-174.43037239555,-176.535653530576,-178.030575836396,-179.954684592117
