"Freq [GHz]","dB(S(1,1)) [] - $eps1='1' $eps2='0'","dB(S(1,1)) [] - $eps1='2' $eps2='0.1'","dB(S(1,1)) [] - $eps1='3' $eps2='0.2'","dB(S(1,1)) [] - $eps1='4' $eps2='0.3'","dB(S(1,1)) [] - $eps1='5' $eps2='0.6'","dB(S(1,1)) [] - $eps1='6' $eps2='0.9'","dB(S(1,1)) [] - $eps1='7' $eps2='1.1'","dB(S(1,1)) [] - $eps1='8' $eps2='1.4'","dB(S(1,1)) [] - $eps1='9' $eps2='1.8'","dB(S(1,1)) [] - $eps1='10' $eps2='2.1'","dB(S(1,1)) [] - $eps1='11' $eps2='2.5'","dB(S(1,1)) [] - $eps1='12' $eps2='2.8'","dB(S(1,1)) [] - $eps1='13' $eps2='3.1'","arg(S(1,1)) [deg] - $eps1='1' $eps2='0'","arg(S(1,1)) [deg] - $eps1='2' $eps2='0.1'","arg(S(1,1)) [deg] - $eps1='3' $eps2='0.2'","arg(S(1,1)) [deg] - $eps1='4' $eps2='0.3'","arg(S(1,1)) [deg] - $eps1='5' $eps2='0.6'","arg(S(1,1)) [deg] - $eps1='6' $eps2='0.9'","arg(S(1,1)) [deg] - $eps1='7' $eps2='1.1'","arg(S(1,1)) [deg] - $eps1='8' $eps2='1.4'","arg(S(1,1)) [deg] - $eps1='9' $eps2='1.8'","arg(S(1,1)) [deg] - $eps1='10' $eps2='2.1'","arg(S(1,1)) [deg] - $eps1='11' $eps2='2.5'","arg(S(1,1)) [deg] - $eps1='12' $eps2='2.8'","arg(S(1,1)) [deg] - $eps1='13' $eps2='3.1'"
0.1,-0.0168585680960856,-0.0230780868560183,-0.0261738090868676,-0.0273972678599137,-0.0310924444198453,-0.0303211091018986,-0.029188567353884,-0.0255310826788965,-0.0223923061537694,-0.0216992759133493,-0.021120549953383,-0.020977329389461,-0.0209549573119991,-8.14897102894969,-8.60359842269729,-8.92187269071851,-9.19882704838928,-9.40867378381357,-9.55818349916247,-9.67974772313615,-9.71018977340372,-9.78370073862915,-9.80252948432921,-9.7429320994631,-9.8026132716297,-9.80376753447305
0.10782,-0.0188419184639297,-0.0256144280714729,-0.028993868758724,-0.0303059027584677,-0.0343824015949195,-0.0337710125350195,-0.032575894479893,-0.0285582185862496,-0.024948496849828,-0.0241327030111117,-0.0234706169191573,-0.0232902411562962,-0.0232601765105587,-8.79265778959341,-9.28229558397287,-9.62556559066117,-9.92463385320549,-10.1502811769965,-10.312170288422,-10.4442525336766,-10.479130334845,-10.5595853564251,-10.5799829217561,-10.5155724368182,-10.5801185763255,-10.5813175647958
0.11564,-0.0209311226103954,-0.0282659747930427,-0.0319326272404305,-0.033329222558066,-0.0377883874418768,-0.0373454518619611,-0.0360904850464845,-0.0317186997115554,-0.0276123494774158,-0.0266626784406368,-0.0259113836876269,-0.0256895537555326,-0.0256501735623994,-9.43827463595441,-9.9630964071887,-10.3315368036818,-10.652902862706,-10.8944363133288,-11.0687573302016,-11.2114873921486,-11.2510404393212,-11.3386738886352,-11.3606724005992,-11.291398909998,-11.3608671401644,-11.3621064464584
0.12346,-0.0231272845726848,-0.0310337458243341,-0.0349907048146659,-0.0364673733006477,-0.0413104043067558,-0.0410429726442369,-0.0397300335200533,-0.0350105810365386,-0.0303829279834824,-0.0292881733905538,-0.0284414104571697,-0.0281738302267347,-0.0281235087063768,-10.0859960198793,-10.6462093277854,-11.0400211585716,-11.3838919978297,-11.6414254575851,-11.8282523270023,-11.9817707044019,-12.0262300907262,-12.1212859076221,-12.1449216481709,-12.0707297015238,-12.1451830370256,-12.1464590108731
0.13128,-0.0254315124017981,-0.0339187757392516,-0.0381687707116466,-0.0397206056459638,-0.0449487138650365,-0.0448628469586051,-0.0434931969465639,-0.0384326530080134,-0.0332599513731749,-0.0320088386307356,-0.0310598772294086,-0.0307422721812022,-0.0306794070759725,-10.7359968799318,-11.3318429109451,-11.751253945721,-12.1178602176014,-12.3915354420278,-12.5909633535345,-12.7554225183677,-12.8050134196936,-12.9077450396334,-12.9330583799344,-12.8538872647148,-12.9333945706136,-12.9347041892593
0.1391,-0.0278449312644418,-0.0369221325974894,-0.0414675664936819,-0.0430893033038874,-0.0487038557864722,-0.0488049994040327,-0.047379494811389,-0.0419844229515418,-0.0362437850383357,-0.0348249881721861,-0.0337665811292115,-0.0333947104072452,-0.0333177426382842,-11.3884531296717,-12.0202065799081,-12.4654717532351,-12.8550683734234,-13.145054623599,-13.3571996758368,-13.5327648726853,-13.5877087685697,-13.6983790808663,-13.7254144008574,-13.6411984278343,-13.7258343889156,-13.7271750966581
0.14692,-0.030368694501103,-0.0400449333930356,-0.0448879265967677,-0.0465740074933477,-0.0525766622887243,-0.0528699500236924,-0.0513892218862546,-0.0456660839482964,-0.0393354169729704,-0.0377375681950681,-0.0365619178012261,-0.0361315798219282,-0.0360390069064938,-12.0435420700713,-12.711511213954,-13.1829131611802,-13.5957799026039,-13.9022736615329,-14.1272724363691,-14.3141221929474,-14.3746387674811,-14.4935201313678,-14.5223257144334,-14.4329945106112,-14.5228396000108,-14.5242091436105
0.15474,-0.0330039931760755,-0.0432883579540361,-0.048430796922718,-0.0501754380931971,-0.0565682694610883,-0.0570587690634877,-0.055523372919439,-0.0494784768517422,-0.0425364243344795,-0.0407481170366838,-0.0394468518433102,-0.0389538842686545,-0.0388442680248078,-12.7014427432428,-13.4059696752849,-13.9038193202515,-14.3402614283664,-14.6634861751186,-14.9014952996363,-15.0998217152918,-15.1661305216148,-15.2935047800383,-15.3241327360716,-15.2296114935036,-15.3247519596349,-15.32614821957
0.16256,-0.0357520646138347,-0.0466536615800357,-0.0520972516355801,-0.0538945117124642,-0.0606801254095313,-0.0613730400565883,-0.0597835776468698,-0.0534230491121633,-0.0458489345701273,-0.043858720445944,-0.0424228806756539,-0.0418631553314887,-0.0417351247148911,-13.3623362712397,-14.1037972625816,-14.628434486764,-15.0887832769022,-15.4289893053931,-15.6801850236029,-15.890193945652,-15.9625158287493,-16.0986743440806,-16.1311805292272,-16.03139023236,-16.1319181063369,-16.1333389264105
0.17038,-0.0386142001679123,-0.0501421868661007,-0.0558885084773727,-0.0577323573526541,-0.064913996056548,-0.0658148291560236,-0.0641720450424238,-0.057501813457805,-0.0492755843424779,-0.0470719655120165,-0.045491994829057,-0.0448614086717591,-0.0447136585554591,-14.0264061366484,-14.8052121335977,-15.3570064687434,-15.8416199350968,-16.1990842415824,-16.4636620068807,-16.6855731241538,-16.7641314595339,-16.9093751801683,-16.94381913703,-16.8386767250954,-16.9446898642798,-16.9461328956975
0.1782,-0.0415917524381417,-0.0537553746706472,-0.0598059429347984,-0.0616903298219186,-0.0692719686531425,-0.0703866591099949,-0.0686915157120267,-0.0617173085644537,-0.052819478664414,-0.0503908958432553,-0.0486566375352094,-0.0479511002952318,-0.0477823870461859,-14.6938384719139,-15.5104356687769,-16.0897870586307,-16.5990504867726,-16.9740766835233,-17.2522508072413,-17.4862977296688,-17.5713195202265,-17.7259590454918,-17.7624039668526,-17.6518224607818,-17.7634246120518,-17.7648871685096
0.18602,-0.0446861421290666,-0.0574947747101083,-0.0638511012050348,-0.0657700211304074,-0.0737564538046173,-0.0750914869402537,-0.0733452211596374,-0.0660725625310566,-0.0564841520823317,-0.0538189693190026,-0.0519196652373634,-0.051135084618411,-0.0509442191398616,-15.3648223225385,-16.2196928490893,-16.827032427103,-17.3613589999848,-17.7542773032938,-18.0462806423976,-18.2927109723517,-18.384427837564,-18.5487835172122,-18.5872962245224,-18.4711848081808,-18.5884857089614,-18.5899646289457
0.19384,-0.0478988645984066,-0.0613620554998203,-0.0680257122374026,-0.0699732702811071,-0.0783701861332944,-0.0799326848952376,-0.078136849496668,-0.0705710601588119,-0.0602735328666737,-0.0573600198116913,-0.0552843102826636,-0.0544165753967653,-0.0542024143615809,-16.0395498987374,-16.93321256939,-17.5690034912468,-18.1288349177853,-18.540002169418,-18.8460859011772,-19.1051613378445,-19.2038104017704,-19.3782124721797,-19.418863427386,-19.2971274579116,-19.4202429666614,-19.4217344906692
0.20166,-0.0512314962296809,-0.0653590140417195,-0.072331698865047,-0.0743021715812267,-0.0831162240679125,-0.0849140239453527,-0.0830705163872787,-0.075216714208936,-0.0641919108808131,-0.0610182229622944,-0.0587541466941743,-0.0577991102290237,-0.0575605460043174,-16.7182168262494,-17.6512279787675,-18.3159662805431,-18.9017734293918,-19.3315731956203,-19.6520066328812,-19.9240031027644,-20.0298278429958,-20.2146165917878,-20.2574799170572,-20.1300209150586,-20.2590731751967,-20.2605728356941
0.20948,-0.0546857006720964,-0.0694875851544583,-0.0767711882308887,-0.0787590816386537,-0.0879979489527026,-0.0900396597507246,-0.0881507409996693,-0.0800138406991452,-0.0682439094325465,-0.0647980665255396,-0.0623330593679481,-0.0612865189031385,-0.0610224685848544,-17.4010223937256,-18.3739767909099,-19.0681922862335,-19.6804758379897,-20.1293185612717,-20.4643890624721,-20.7495969017444,-20.8628479463421,-21.0583739182847,-21.1035274546323,-20.9702430373374,-21.1053606656742,-21.106863183981
0.2173,-0.0582632349872152,-0.0737498505037246,-0.0813465214718438,-0.0833466253453772,-0.0930190638788355,-0.0953141208205645,-0.0933824260558634,-0.0849671379280213,-0.0724344611310818,-0.0687043249309428,-0.0660252166727883,-0.0648828955984463,-0.0645922895024474,-18.0881697913907,-19.1017015925275,-19.8259588101052,-20.4652499305847,-20.9335731622484,-21.2835860870628,-21.5823102798657,-21.7032461838091,-21.9098704411011,-21.9573958140393,-21.8181795891239,-21.9594979057471,-21.9609970952181
0.22512,-0.061965955744502,-0.0781480474122998,-0.0860602627091256,-0.0880677009930863,-0.0981835922920991,-0.100742298643,-0.098770841671213,-0.0900816692280431,-0.0767687874562275,-0.0727420378933074,-0.0698350466377839,-0.0685925747454834,-0.0682743445889952,-18.7798663500618,-19.8346501500256,-20.5895493052246,-21.256410360118,-21.7446790514906,-22.109957811742,-22.422518278968,-22.5514062847835,-22.7695007123741,-22.8194834208106,-22.6742248503738,-22.821886124556,-22.8233748093795
0.23294,-0.0657958251169279,-0.0826845774661914,-0.0909152076576483,-0.0929254846130407,-0.103495876708374,-0.106329439699249,-0.104321612462949,-0.095362848843146,-0.0812523818668329,-0.0769164926211268,-0.0737672162761984,-0.0724201102397226,-0.0720731771215226,-19.4763237932187,-20.5730757218519,-21.3592537311893,-22.0542790203168,-22.5629859053892,-22.9438720739782,-23.2706040166818,-23.4077208245178,-23.6376684813376,-23.6901980089608,-23.5387822371252,-23.6929359680817,-23.6944058931898
0.24076,-0.06975491695376,-0.0873620149465221,-0.0959143916713744,-0.0979234338195471,-0.108960577482424,-0.112081139154655,-0.110040707480867,-0.100816430698633,-0.0858909960066776,-0.0812332092085881,-0.0778266138111436,-0.0763702576309384,-0.0759935199581669,-20.1777584745468,-21.3172373615023,-22.1353689052956,-22.8591854451891,-23.3888514899529,-23.78570499088,-24.1269593014269,-24.2725918271728,-24.5147873679217,-24.5699573032242,-24.4122649601906,-24.573068182786,-24.5745099393842
0.24858,-0.0738454228871184,-0.0921831150791494,-0.10106109735642,-0.1030652911494,-0.11458267203122,-0.11800333616023,-0.115934432675189,-0.106448499703771,-0.0906906285786256,-0.085697928708445,-0.0820183333898926,-0.0804479587576231,-0.0800402801058697,-20.8843916298468,-22.0674002352718,-22.9181988611367,-23.671467213758,-24.2226421615652,-24.6358415183625,-24.9919852438091,-25.1464314068584,-25.4012815414357,-25.4591897181063,-25.2950966894381,-25.4627143079566,-25.464117251012
0.2564,-0.0780696584662307,-0.0971508221567835,-0.106358861906631,-0.108355087085345,-0.120367454316754,-0.12410231061824,-0.122009425503842,-0.112265465195817,-0.0956575165512736,-0.090316603422112,-0.086347661947388,-0.0846583285191769,-0.0842185254112214,-21.596449629314,-22.8238359291635,-23.7080552185541,-24.4914703658818,-25.0647333650522,-25.4946760304732,-25.8660928962399,-26.029662415276,-26.2975864323925,-26.3583350857072,-26.1877122666264,-26.3623174077459,-26.3636695801864
0.26422,-0.0824300693320988,-0.102268277578811,-0.11181148407755,-0.113797142932349,-0.12632053478258,-0.130384681205989,-0.128272651356667,-0.118274056165208,-0.100798128165709,-0.0950953888986677,-0.0908200676767422,-0.0890066431665524,-0.0885334727208237,-22.314164235895,-23.5868227856631,-24.5052575599418,-25.3195498472909,-25.9155101635042,-26.3626129080548,-26.7497039003179,-26.9227191143016,-27.2041494613146,-27.2678453961329,-27.0905584138473,-27.2723328120578,-27.2736208631105
0.27204,-0.0869292374459032,-0.107538827738774,-0.117423031025725,-0.11939607342583,-0.132447840729696,-0.136857404687651,-0.134731401591585,-0.124481318007486,-0.106119157441811,-0.100040637250785,-0.0954411898221464,-0.0934983297868869,-0.0929904771622368,-23.037772865341,-24.3566462231519,-25.3101338264888,-26.1560699504495,-26.7753677793948,-27.2400671531061,-27.6432511571994,-27.8260478746214,-28.1214307932574,-28.1881855650626,-28.0040944888765,-28.1932288955274,-28.1944379984585
0.27986,-0.0915698873770665,-0.112966031859254,-0.123197844824616,-0.125156789381231,-0.138755617208664,-0.14352777616866,-0.141393292816432,-0.130894610438664,-0.111627519705976,-0.105158891330595,-0.100216829249956,-0.0981389564225252,-0.0975950219168015,-23.7675188594433,-25.1335990795164,-26.1230207143662,-27.0014047933646,-27.6447121634925,-28.127465013869,-28.5471795130971,-28.7401078965597,-29.0499041144527,-29.1198342212492,-28.9287932453886,-29.1254878599529,-29.1266016209405
0.28768,-0.0963548926580388,-0.118553669756083,-0.129140548945075,-0.131084500267695,-0.14525042828116,-0.150403430432571,-0.148266267326521,-0.137521606310823,-0.117330347802074,-0.110456879342907,-0.1051529395112,-0.102934222505497,-0.102352708245394,-24.5036517641111,-25.9179819613696,-26.944264099535,-27.855938806155,-28.5239605738527,-29.0252446404283,-29.4619464683152,-29.6653719469851,-29.9900574272937,-30.0632845222396,-29.8651416292569,-30.0696065593463,-30.0706069300018
0.2955,-0.101287282185285,-0.124305749530089,-0.135256054598092,-0.13718471679318,-0.151939158811402,-0.157492343852116,-0.155358594253104,-0.144370291078113,-0.123234988706173,-0.115941509569208,-0.110255617907392,-0.10788994916855,-0.10726924516255,-25.2464276087567,-26.7101035997984,-27.7742194630135,-28.7200672372813,-29.4135421907325,-29.9338567467279,-30.3880229047474,-30.6023271333937,-30.9423938830056,-31.0190449908,-30.8136415955056,-31.0260973464095,-31.0269645239733
0.30332,-0.10637024671794,-0.130226515213946,-0.141549566900996,-0.143463253573327,-0.158829016522266,-0.164802837181819,-0.162678871396036,-0.151448962679699,-0.129349000092759,-0.121619864818261,-0.115531096292492,-0.113012068952201,-0.112350438432431,-25.9961092040485,-27.5102812228461,-28.6132523457616,-29.594196686179,-30.3138987399014,-30.853765308192,-31.3258938315237,-31.5514756952768,-31.9074326322283,-31.9876403851764,-31.7748109562729,-31.9954889369358,-31.9962012603076
0.31114,-0.111607145415561,-0.136320454375442,-0.148026591143854,-0.149926231793962,-0.165927534459118,-0.172343578645206,-0.170236027471058,-0.158766231509493,-0.135680146660492,-0.127499196242445,-0.120985731094306,-0.118306614708484,-0.117602178510594,-26.7529664395214,-28.3188409352077,-29.4617388105182,-30.4787456523648,-31.2254851474014,-31.7854482708809,-32.2760591668621,-32.5133358266981,-32.8857097079043,-32.9696125927493,-32.7491842483046,-32.9783273239092,-32.978861160548
0.31896,-0.117001512453006,-0.142592305680278,-0.154692938831676,-0.15658008190252,-0.173242573668918,-0.180123587527891,-0.178039324436999,-0.166331020398215,-0.142236395862801,-0.133586916235398,-0.126625992384906,-0.123779707123234,-0.123030426992092,-27.5172765972836,-29.1361181142619,-30.320065925789,-31.3741451014942,-32.1487702178528,-32.7293982931827,-33.2390345251356,-33.4884425315122,-33.8777789435342,-33.9655215594282,-33.7373136503843,-33.9751767074501,-33.9755063348814
0.32678,-0.122557063720796,-0.149047066418741,-0.161554733794499,-0.163431546414243,-0.18078232600977,-0.18815223787231,-0.186098359941781,-0.174152564215546,-0.149025912725303,-0.139890590089258,-0.132458451459309,-0.129437540627938,-0.128641201191756,-28.289324672231,-29.9624578172259,-31.1886322674428,-32.2808390690236,-33.0842373314838,-33.6861235043439,-34.2153520534964,-34.4773485025466,-34.8842129143087,-34.9759462565274,-34.7397699084608,-34.9866204618939,-34.986717939391
0.3346,-0.128277703535692,-0.155689999978164,-0.168618418182044,-0.170487682532172,-0.188555317071948,-0.196439262207091,-0.194423069414145,-0.182240408962515,-0.156057053590189,-0.146417926045101,-0.138489766709019,-0.135286367274427,-0.134440556531983,-29.069403700218,-30.7982152044217,-32.0678484367111,-33.1992852673507,-34.0323851760201,-34.6561482910519,-35.2055612707576,-35.4806250383879,-35.9056039253472,-36.0014856742613,-35.7571433183054,-36.0132621480661,-36.0130971807295
0.34242,-0.134167531446549,-0.162526643259288,-0.175890758415325,-0.177755864808273,-0.196570408979995,-0.2049947551751,-0.203023727759051,-0.190604410142647,-0.163338358402654,-0.153176763545944,-0.144726667348999,-0.141332478204121,-0.140434566264178,-29.857815103414,-31.6437559719633,-32.958137603763,-34.1299557268034,-34.9937284929728,-35.6400141096325,-36.2102299536933,-36.498862991429,-36.9425650340553,-37.042759865978,-36.7900447299099,-37.0557265514505,-37.055266347121
0.35024,-0.140230849074214,-0.169562814050769,-0.183378851025599,-0.185243787613198,-0.204836802975618,-0.213829176725383,-0.211910950349455,-0.199254730093278,-0.170878541312524,-0.160175059256168,-0.151175934710873,-0.147582182369994,-0.146629298202363,-30.6548690426215,-32.499456808255,-33.8599360628494,-35.0733374605522,-35.9687988565471,-36.6382803246595,-37.2299450417252,-37.5326737550402,-37.9957311009555,-38.1004110224582,-37.8391065983724,-38.1146607720833,-38.1138698840345
0.35806,-0.146472166946579,-0.176804618263856,-0.191090128331601,-0.192959467321649,-0.213364041748887,-0.222953354858488,-0.221095693075375,-0.2082018341052,-0.178686479367378,-0.167420870665333,-0.157844380678484,-0.15404178206873,-0.153030788081209,-31.460884777889,-33.3657058543418,-34.7736938118082,-36.0299331438573,-36.958145478401,-37.6515250742623,-38.2653135715765,-38.5826902763256,-39.0657598985458,-39.1751045942544,-38.9049840733259,-39.1907353504851,-39.1895755174164
0.36588,-0.152896211403824,-0.184258457116979,-0.19903236397958,-0.200911244229908,-0.222162011114472,-0.232378487491184,-0.230589251244119,-0.217456485092957,-0.186771198964166,-0.174922336924395,-0.164738822947025,-0.160717545001439,-0.159645009093282,-32.2761910505259,-34.2429031937439,-35.6998751549166,-37.0002618286422,-37.9623360375242,-38.6803461586755,-39.3169636465542,-39.6495681223068,-40.1533332474974,-40.2675304606988,-39.9883561303478,-40.2846454418115,-40.2830754159981
0.3737,-0.159507931458777,-0.191931034104917,-0.207213678147392,-0.20910778390248,-0.23124094103068,-0.242116143374109,-0.240403257003523,-0.227029736440394,-0.195141859879525,-0.182687656637614,-0.171866056756543,-0.167615672372706,-0.166477837264548,-33.1011264682662,-35.1314613460945,-36.6389593195475,-37.9848596679015,-38.9819575333417,-39.7253619623501,-40.3855454310276,-40.7339865640581,-41.2591582060717,-41.3784041421165,-41.0899267482162,-41.3971120381207,-41.3950874048453
0.38152,-0.166312505636687,-0.199829361806881,-0.21564254246022,-0.217558077987121,-0.240611405697567,-0.252178261694111,-0.250549675012167,-0.236932922930256,-0.203807736561586,-0.190725062308746,-0.179232822653481,-0.174742262716468,-0.173535012246449,-33.9360399071292,-36.0318057821404,-37.5914410975346,-38.9842806754087,-40.0176171722567,-40.7872123982073,-41.4717321810862,-41.8366497168655,-42.3839683015306,-42.5084680618116,-42.2104261360207,-42.528883237468,-42.5263562291028
0.38934,-0.173315348784865,-0.207960768425415,-0.224327784443319,-0.226271444148319,-0.250284322447266,-0.262577150024928,-0.261040796006366,-0.247177649294453,-0.212778196457824,-0.199042791197648,-0.186845770005717,-0.182103271032554,-0.180822093114915,-34.7812909277047,-36.9443754569058,-38.5578315059934,-39.9990974958866,-41.0699432731524,-41.8665598749593,-42.576221293574,-42.9582877089955,-43.5285248050894,-43.6584928566785,-43.3506119976382,-43.680735561594,-43.6776548636916
