Freq [GHz],"dB(S(1,1))_1 [] - $eps1='1' $eps2='0'","dB(S(1,1))_1 [] - $eps1='2' $eps2='0.1'","dB(S(1,1))_1 [] - $eps1='3' $eps2='0.2'","dB(S(1,1))_1 [] - $eps1='4' $eps2='0.3'","dB(S(1,1))_1 [] - $eps1='5' $eps2='0.6'","dB(S(1,1))_1 [] - $eps1='6' $eps2='0.9'","dB(S(1,1))_1 [] - $eps1='7' $eps2='1.1'","dB(S(1,1))_1 [] - $eps1='8' $eps2='1.4'","arg(S(1,1)) [deg] - $eps1='1' $eps2='0'","arg(S(1,1)) [deg] - $eps1='2' $eps2='0.1'","arg(S(1,1)) [deg] - $eps1='3' $eps2='0.2'","arg(S(1,1)) [deg] - $eps1='4' $eps2='0.3'","arg(S(1,1)) [deg] - $eps1='5' $eps2='0.6'","arg(S(1,1)) [deg] - $eps1='6' $eps2='0.9'","arg(S(1,1)) [deg] - $eps1='7' $eps2='1.1'","arg(S(1,1)) [deg] - $eps1='8' $eps2='1.4'"
0.1,-0.102569488586709,-0.106629615561902,-0.107436348761256,-0.107550777987936,-0.111444751710769,-0.110131382982182,-0.108244059285408,-0.10511699473501,-44.5364413653599,-44.9444335076602,-44.8028358119026,-44.6672744210149,-45.1148487276337,-44.9718766206934,-44.9249996151986,-44.898965939636
0.105675146771037,-0.107920196163391,-0.112183227536692,-0.113113310517276,-0.113295575882716,-0.117503365335639,-0.116314527475208,-0.114336034078196,-0.111016179755657,-46.949664094206,-47.3811976820426,-47.2401596068315,-47.101873317729,-47.5717761079681,-47.4258233036158,-47.3788740607107,-47.354672262358
0.111350293542074,-0.113181257248395,-0.117658179972136,-0.118729660143436,-0.118990314392649,-0.123517535975498,-0.122462395895934,-0.120391147629767,-0.116880963870235,-49.3484192344466,-49.803845993021,-49.6646647688466,-49.5243958245191,-50.0163001503477,-49.8680850445421,-49.8214249721003,-49.7995149470062
0.117025440313112,-0.118356750635369,-0.123055333484854,-0.124287397468935,-0.124635782517758,-0.129487991649352,-0.128574368503892,-0.126408763292972,-0.122711612014223,-51.7325810253082,-52.2121568040213,-52.0761723866943,-51.9346825364973,-52.448283970625,-52.2985746415739,-52.2526030044116,-52.2334880067596
0.122700587084149,-0.123444410517936,-0.128377054008978,-0.129788027153439,-0.130234552148267,-0.135415891674738,-0.134651433033767,-0.132391467622901,-0.128513875439753,-54.1018883059039,-54.605945349568,-54.4745258611081,-54.3326218483834,-54.8676355674389,-54.7172563933835,-54.6724152591092,-54.6566468724593
0.128375733855186,-0.128444205580177,-0.133625191358468,-0.135234844168887,-0.135788300672603,-0.141303418858148,-0.140696979263828,-0.138346404271676,-0.134300949326658,-56.4561677458762,-56.9850655914747,-56.8596207205267,-56.7181363630606,-57.2743125905453,-57.1241498888931,-57.0809240301369,-57.0691011933321
0.134050880626223,-0.133357277080903,-0.13880322483068,-0.140631381070695,-0.14130028460181,-0.147154048185879,-0.146717731965621,-0.144286531362783,-0.140094680937342,-58.7952805693894,-59.3494127349811,-59.2313879514521,-59.0911900129232,-59.6683241421294,-59.5193284880932,-59.4782413989146,-59.4709999217344
0.13972602739726,-0.138185174515808,-0.143915033958636,-0.145981874905386,-0.146773817799081,-0.152973142178451,-0.152724758460804,-0.150231408134189,-0.145926040976763,-61.1191002713346,-61.6989222137438,-61.5897993561545,-61.4517942328066,-62.0497328502171,-61.9029192244998,-61.864520151715,-61.8625133502228
0.145401174168297,-0.142932358586161,-0.148965303587713,-0.151291180751153,-0.152213292898967,-0.158768637645682,-0.158734389413277,-0.156207600306864,-0.151834368452479,-63.4276434473368,-64.033570796152,-63.934869120616,-63.8000071020722,-64.4186562513982,-64.2750966780794,-64.2399418699784,-64.243813790452
0.151076320939335,-0.147597690267342,-0.153959566210601,-0.156564877826409,-0.157624221105491,-0.164551749978551,-0.164768754302116,-0.162248292231617,-0.157865693109191,-65.7208023043472,-66.3533771252121,-66.266654799613,-66.1359357891853,-66.7752653710161,-66.6360763173136,-66.6047047843636,-66.6150556221503
0.156751467710372,-0.152190148152632,-0.158903846501948,-0.161809362745573,-0.16301356143616,-0.17033773887059,-0.170856040816215,-0.168392296238785,-0.1640695597603,-67.9986355956862,-68.6584008758081,-68.5852586519368,-68.4597420022474,-69.1197823654008,-68.9861052083317,-68.9590100083601,-68.9763571439807
0.162426614481409,-0.156710424783771,-0.163805306627715,-0.167031973182504,-0.168390786518198,-0.176146369615264,-0.177030316228584,-0.174682214026485,-0.17049466273318,-70.2611765767987,-70.948745667258,-70.8908281944697,-70.7716254129161,-71.4524773740675,-71.3254529876004,-71.303049441403,-71.3277874695384
0.168101761252446,-0.161165894145895,-0.168671685492733,-0.172241157693584,-0.173766987596743,-0.182002539012567,-0.183330744189368,-0.181161637341236,-0.17718206297305,-72.5085440348316,-73.2245564420725,-73.1835578154066,-73.0718570673988,-73.7736618784996,-73.6544011658005,-73.6369970040857,-73.6693594744397
0.173776908023483,-0.165564863236935,-0.173511520153238,-0.177446639912709,-0.179157020465726,-0.187936359870889,-0.189800263959362,-0.187871426324944,-0.184157165522844,-74.740844548813,-75.4860187820524,-75.4636890293276,-75.3607469494346,-76.083683014558,-75.9732336564648,-75.9610024972648,-76.0010445501297
0.179452054794521,-0.169911345315927,-0.178334389283928,-0.182659743375455,-0.184579148412237,-0.193983164748662,-0.196483619738943,-0.194844828573389,-0.191419113762536,-76.9582628195873,-77.7333636291401,-77.7315116705705,-77.6386569322595,-78.3829160933392,-78.2822288443941,-78.2751973345427,-78.3228129211404
0.185127201565558,-0.174213899725789,-0.183150712797805,-0.187893659256103,-0.190055832458245,-0.200182971385528,-0.203424631264317,-0.202101761008481,-0.198933568509906,-79.1609974913283,-79.9668624455147,-79.9873637857784,-79.9059964076839,-80.6717563393477,-80.5816564345391,-80.5797131199299,-80.6347328170291
0.190802348336595,-0.178480962754088,-0.187971964019088,-0.193163759872758,-0.195614173053048,-0.206579733878855,-0.210662710659758,-0.209643445798565,-0.206630375353142,-81.3492908087737,-82.1868295915002,-82.2316320460299,-82.1632172936023,-82.9506123807746,-82.871777761773,-82.8747245970862,-82.9371016937457
0.196477495107632,-0.182721500103608,-0.192810736287356,-0.198488060161378,-0.201286155852387,-0.213219973865122,-0.218228743075935,-0.217449167281958,-0.214417032246172,-83.523415574997,-84.393622394024,-84.4647507659436,-84.4108107349594,-85.219899240183,-85.1528589199371,-85.1605179739266,-85.2306343382362
0.202152641878669,-0.186946739187888,-0.197680908208366,-0.203887538844525,-0.20710899785217,-0.220150952705653,-0.226141050813571,-0.225478190474716,-0.22220863305219,-85.6836992221855,-86.5876405158682,-86.6872036869712,-86.6493014699854,-87.480035008451,-87.4251952346617,-87.4375838848763,-87.5165835968327
0.207827788649706,-0.191163667411433,-0.202597742905907,-0.2093864952205,-0.213124828663636,-0.227418348091671,-0.234402054174312,-0.233679837230871,-0.229974277002385,-87.8304770019004,-88.7693269794149,-88.8995184585491,-88.8792408636156,-89.7314393413211,-89.6891557434408,-89.7067152164205,-89.7967515117184
0.213502935420744,-0.19539092723519,-0.207578046324036,-0.215013070419323,-0.219380576330213,-0.23506335644545,-0.242997805364634,-0.242013304142217,-0.237783636507517,-89.9641304974335,-90.9391676757024,-91.1022702006511,-91.101203518817,-91.9745398790666,-91.9452439642597,-91.9690760318977,-92.0732900535478
0.219178082191781,-0.199636306474493,-0.212640422679042,-0.220799473105173,-0.225927184794244,-0.243119605277443,-0.251901819051964,-0.250474544396024,-0.245830617596649,-92.085103563192,-93.0976920864611,-93.2960759407919,-93.3157789006568,-94.2097861772473,-94.1941717890985,-94.2261983624704,-94.348313798513
0.224853228962818,-0.203912102120175,-0.217805448863436,-0.226782364286731,-0.232818729018011,-0.251610317549848,-0.261085155681057,-0.259123338695687,-0.254418272885153,-94.1937983912052,-95.2454733540424,-95.4815938001098,-95.5235695611351,-96.4376749288683,-96.4369282658813,-96.4798744613431,-96.6234592703475
0.230528375733855,-0.208238749471854,-0.223095904690097,-0.23300308145879,-0.240110856590731,-0.26054646389792,-0.270532820331853,-0.268100173910592,-0.263908500959613,-96.2907626255087,-97.3831287199208,-97.6595206949977,-97.7251847045728,-98.6587884371705,-98.6748217425217,-98.7319490619061,-98.8995635058239
0.236203522504892,-0.212621049050347,-0.228537085273248,-0.239507734527756,-0.247858992801944,-0.269927117238597,-0.280264467911404,-0.2776245815031,-0.274655250794192,-98.376445513386,-99.5113198432996,-99.8305889194524,-99.9212438724979,-100.873845301889,-100.909467057887,-100.984061689757,-101.176547061235
0.24187866927593,-0.217087058847494,-0.234157087612554,-0.246347280179882,-0.256116081472797,-0.279743193485964,-0.290354471552963,-0.287973100958163,-0.286936388718251,-100.451476785618,-101.630753158957,-101.995563876669,-102.112375606061,-103.083757961522,-103.142702083182,-103.237416456462,-103.453487256734
0.247553816046967,-0.221650101887905,-0.239987091426268,-0.253577305702864,-0.264929955458378,-0.289985594080451,-0.300945379317639,-0.29944224985269,-0.300888459497224,-102.516382246454,-103.742180300892,-104.155241263775,-104.299238162582,-105.289687231231,-105.376436127126,-105.492640265357,-105.72886046312
0.253228962818004,-0.226330440237251,-0.246061729344937,-0.26125777862236,-0.274340899146323,-0.300657860493302,-0.312249266811663,-0.312304009646441,-0.3164493081872,-104.571840348267,-105.846398646626,-106.310445051294,-106.482530077564,-107.493078090282,-107.612459052138,-107.749756019729,-108.000999160505
0.258904109589041,-0.231148959627682,-0.252419470232814,-0.269452501633981,-0.284379651790674,-0.311792201340387,-0.324534963841485,-0.326759606899138,-0.333329131246226,-106.618496928018,-107.944251861896,-108.462026675362,-108.663025496452,-109.695660424458,-109.852255196317,-110.008277014541,-110.26881549173
0.264579256360078,-0.23612914199589,-0.259102940586348,-0.278228376705235,-0.29506681619133,-0.32346628696934,-0.33810288247057,-0.342896318098926,-0.351043793806209,-108.657046425689,-110.036630201749,-110.610865653924,-110.841614811624,-111.899401586993,-112.096865007937,-112.267436602519,-112.532716715709
0.270254403131115,-0.241294922926803,-0.266159341191685,-0.287654523147995,-0.306414452554451,-0.335816978914399,-0.353251364667712,-0.360655773748084,-0.369036517029777,-110.688231704369,-112.124471876169,-112.75787193556,-113.0193555158,-114.106408025667,-114.346822735737,-114.526575507604,-114.79543058599
0.275929549902153,-0.246674091802337,-0.273640863067476,-0.297801199533218,-0.318430679460972,-0.349047273912261,-0.370238675006736,-0.379829492276723,-0.38687926465426,-112.712830648626,-114.208763134799,-114.903992486415,-115.197528384629,-116.318786359275,-116.602186597088,-116.785681667553,-117.062347553379
0.28160469667319,-0.252295098097205,-0.28160504668297,-0.308738699867261,-0.331128548727204,-0.363423719764406,-0.389244591509927,-0.400099627545378,-0.404506437719493,-114.731658918189,-116.290539830767,-117.050221234935,-117.377687527695,-118.538487292741,-118.862675586802,-119.045988696945,-119.341022785176
0.287279843444227,-0.258190008588724,-0.290115223386281,-0.320536412481188,-0.344538363737276,-0.379263554932994,-0.410337351440988,-0.421133317083712,-0.422390725578205,-116.745578614173,-118.370888417705,-119.197614489828,-119.561695968881,-120.767159536006,-121.127933227964,-121.310447120581,-121.639685807439
0.292954990215264,-0.264393289409542,-0.299240906121292,-0.333262270478147,-0.358723369687274,-0.396912500119983,-0.433456192397656,-0.442718634789088,-0.441551956611908,-118.755493441273,-120.45094800825,-121.347312343439,-121.751730437673,-123.006041993025,-123.39792600183,-123.583841479444,-123.965116844676
0.298630136986301,-0.270942959196814,-0.309058169815273,-0.346982973029574,-0.373796468894816,-0.416715313398718,-0.458422973899248,-0.464907869016206,-0.463357898144909,-120.762358409332,-122.531912313774,-123.500566153159,-123.950247817195,-125.255914440327,-125.673440990158,-125.872395877178,-126.320804922817
0.304305283757339,-0.277880333873763,-0.31965008496998,-0.361765336498391,-0.389935406415038,-0.438981525454588,-0.484994885418954,-0.488120371343864,-0.489195171657791,-122.76717046295,-124.615033062547,-125.658771471984,-126.159906583422,-127.517126776326,-127.956578407301,-128.182857554119,-128.706221401541
0.309980430528376,-0.285250603936073,-0.331107116314141,-0.377679409949187,-0.407393622850013,-0.463949813849557,-0.512958828618667,-0.513158850658494,-0.520137550416362,-124.770985253073,-126.701623268593,-127.823504701483,-128.383448059401,-129.789727137452,-130.251074535973,-130.521260994239,-131.117392769238
0.315655577299413,-0.293103608775023,-0.343527554647663,-0.394803508417233,-0.426503916056315,-0.491756596484546,-0.542251890735999,-0.541118800262691,-0.556701375520546,-126.774911038093,-128.793063088565,-129.996560500672,-130.623549643322,-132.073711863762,-132.562296285695,-132.891750174743,-133.548530428178
0.32133072407045,-0.301494159885138,-0.357018001321155,-0.413231607063027,-0.447673253601134,-0.522418492716859,-0.573078017648579,-0.573210716728008,-0.598758265482001,-128.780115912811,-130.890806132338,-132.179984519727,-132.882669018368,-134.369406088747,-134.896823930273,-135.29585831574,-135.994390317024
0.327005870841487,-0.310482023750792,-0.371693994113742,-0.433082909016309,-0.471368177607552,-0.555841267991698,-0.605987030372076,-0.610543495194148,-0.645670858661537,-130.787829431879,-132.99638818355,-134.37609662854,-135.162900276014,-136.677947293452,-137.261663393517,-137.732479472875,-138.45269402102
0.332681017612524,-0.320134010589732,-0.387680749489433,-0.454513256107456,-0.498090878061078,-0.591866639210762,-0.641889029702652,-0.653922818857001,-0.696617540243371,-132.799351817216,-135.11143792004,-136.58749815094,-137.465864966761,-139.001783378052,-139.663247517111,-140.198580957539,-140.925503594016
0.338356164383562,-0.330523372869766,-0.405114188992988,-0.477727577756289,-0.528346810343592,-0.630360198263526,-0.681992525944617,-0.703717324548911,-0.750916577666666,-134.816053307514,-137.237690571742,-138.817058039131,-139.792661277111,-141.345042729241,-142.106459971773,-142.6905893406,-143.419081113947
0.344031311154599,-0.341730967339062,-0.424142346609145,-0.502992193368806,-0.562605615630006,-0.671329032499057,-0.727673608057129,-0.75984975093059,-0.808215129889889,-136.839385164564,-139.377004113343,-141.067875045661,-142.143898973312,-143.713622690027,-144.593929637551,-145.206206068177,-145.943230645727
0.349706457925636,-0.353847044172632,-0.444927314791345,-0.530645616128746,-0.601258842165656,-0.715044401876205,-0.780299066849391,-0.821948967435363,-0.868670111737256,-138.870882031859,-141.531378700972,-143.343215367341,-144.519854491194,-146.114902113877,-147.125795283259,-147.746105997256,-148.511032627724
0.355381604696673,-0.366971099012859,-0.467647885034645,-0.561106372180778,-0.644581777707755,-0.762139274371587,-0.841036801809717,-0.889625086325714,-0.933266837575207,-140.912170571796,-143.702978951237,-145.646428998083,-146.920780016479,-148.557090590615,-149.700074468481,-150.314829538458,-151.137949928712
0.36105675146771,-0.381213410273033,-0.492503125450902,-0.594876542624092,-0.692711419446044,-0.813657273879513,-0.910696421401745,-0.962756231074815,-1.00409108897851,-142.964975891627,-145.894158800074,-147.980851581422,-149.347385564126,-151.048326420202,-152.313700904211,-152.920604644878,-153.838795384299
0.366731898238748,-0.396698070851655,-0.519717082966566,-0.632539808462849,-0.745657264457263,-0.871039183453387,-0.989658137435757,-1.04170238851228,-1.08418404371337,-145.031140200145,-148.107488376373,-150.349701787719,-151.801466553767,-153.595683560972,-154.964176073322,-155.574496426379,-156.623339390221
0.372407045009785,-0.413561484152256,-0.549544825933814,-0.674753334031302,-0.803360891813657,-0.936044763214756,-1.07795114108261,-1.1274601541983,-1.17688882205485,-147.112608010117,-150.345781230962,-152.755988175763,-154.286575250001,-156.204263063601,-157.65149581997,-158.28935124417,-159.493543914536
0.378082191780822,-0.431957138006939,-0.582280029893411,-0.722233154796197,-0.865811745580109,-1.01061429406963,-1.17550454201021,-1.22179694295771,-1.28504148759304,-149.21146886336,-152.612120609517,-155.202443064821,-156.80855835828,-158.87653913606,-160.379692462331,-161.078399695891,-162.444877508273
0.383757338551859,-0.452056114919869,-0.618264172422968,-0.775733718240986,-0.933208740950665,-1.09668160837891,-1.28251131341369,-1.32730480813947,-1.41057084479228,-151.329944131095,-154.909882655369,-157.691504888471,-159.375749608483,-161.612147192346,-163.15728087888,-163.953163302852,-165.471391273047
0.389432485322896,-0.474049877204501,-0.657897451566645,-0.836023450922218,-1.0061377831237,-1.19596301588611,-1.39977705329053,-1.44724602347603,-1.55485515345153,-153.470414225117,-157.24275367752,-160.225376117143,-161.998664100656,-164.408310803881,-165.99638441183,-166.921030693283,-168.570995881066
0.395107632093933,-0.498153256732269,-0.701651265779491,-0.903860488240199,-1.08572495702146,-1.30976790566376,-1.52895032241876,-1.58514376427008,-1.71954303164092,-155.635428593661,-159.614739177837,-162.806182593603,-164.689174099024,-167.261099509248,-168.910980786736,-169.983768669042,-171.746521189224
0.400782778864971,-0.524607371674551,-0.750082076108124,-0.979975484972064,-1.17373029649921,-1.43891339370439,-1.67261732538084,-1.74426248307194,-1.90703710051683,-157.827724144081,-162.030161783998,-165.436256586576,-167.459295087874,-170.167576223661,-171.914873948404,-173.138369242933,-175.00212885256
0.406457925636008,-0.553683578717088,-0.803846234960841,-1.06507159985669,-1.27256310263761,-1.58384171290761,-1.83429382973345,-1.92729197326142,-2.12023959240507,-160.050242701404,-164.493646157091,-168.11854786266,-170.319788951996,-173.128474802926,-175.019679044728,-176.380532184967,-178.340004363765
0.412133072407045,-0.585688293693665,-0.863715242190745,-1.15985394865289,-1.38521429027223,-1.74500490227915,-2.01830936485136,-2.13654114537921,-2.36211305923748,-162.306161890684,-167.01008945318,-170.857132952977,-173.278787601447,-176.150479983709,-178.232846340117,-179.709202232927,178.238524654858
0.417808219178082,-0.620965497089396,-0.930590706472399,-1.2651003768082,-1.51510567602481,-1.92347269106687,-2.22953314837624,-2.37465458341901,-2.63582108555049,-164.598888151638,-169.58461803861,-173.657744612734,-176.340613847435,-179.246962582154,178.444044245581,176.870810990496,174.72940781879
0.423483365949119,-0.659907865947847,-1.00551821094832,-1.38178011808572,-1.66585464760948,-2.12157704445962,-2.47292632698196,-2.64546948787111,-2.94539441532995,-166.932137527353,-172.222532990408,-176.528194154702,-179.505010978188,177.563750106773,175.015678392249,173.350414525934,171.124997500109
0.429158512720157,-0.70295904637659,-1.08969926851671,-1.5112169621382,-1.8409595364993,-2.34335345017048,-2.75306486567256,-2.9544702478913,-3.29619301122498,-169.3099169039,-174.929250803246,-179.478524074807,177.232881596296,174.262237809288,171.490980152134,169.72102845805,167.417211317331
0.434833659491194,-0.750623777780792,-1.18450074889002,-1.65528004822104,-2.04344367710941,-2.59463804155626,-3.07394719362305,-3.30870171503826,-3.69468309025726,-171.736578294935,-177.710249733952,177.479264062484,173.881314308237,170.832800422595,167.878209220956,165.979278377192,163.600131568299
0.440508806262231,-0.803478076862588,-1.29146167339512,-1.81657271244879,-2.27556357241872,-2.88282388698798,-3.43947718594812,-3.71643822594056,-4.14815544310245,-174.216855202422,179.428961985189,174.33200535467,170.448972617262,167.267840406821,164.178706783037,162.129482210605,159.666421228658
0.446183953033268,-0.862180646443915,-1.41229829019178,-1.99858236170093,-2.53877357842813,-3.21637185688962,-3.85476924647353,-4.18691062614166,-4.66569717230613,-176.755902776379,176.482834140411,171.066691468359,166.940169959445,163.571018824754,160.382950591643,158.184471496196,155.599617378219
