"Freq [GHz]","dB(S(2,1)) [] - $eps1='1' $eps2='0'","dB(S(2,1)) [] - $eps1='1.5' $eps2='0.05'","dB(S(2,1)) [] - $eps1='2' $eps2='0.1'","dB(S(2,1)) [] - $eps1='2.5' $eps2='0.15'","dB(S(2,1)) [] - $eps1='3' $eps2='0.2'","dB(S(2,1)) [] - $eps1='3.5' $eps2='0.25'","dB(S(2,1)) [] - $eps1='4' $eps2='0.3'","dB(S(2,1)) [] - $eps1='4.5' $eps2='0.35'","dB(S(2,1)) [] - $eps1='5' $eps2='0.6'","dB(S(2,1)) [] - $eps1='5.5' $eps2='0.75'","dB(S(2,1)) [] - $eps1='6' $eps2='0.9'","dB(S(2,1)) [] - $eps1='6.5' $eps2='1'","dB(S(2,1)) [] - $eps1='7' $eps2='1.1'","dB(S(2,1)) [] - $eps1='7.5' $eps2='1.25'","dB(S(2,1)) [] - $eps1='8' $eps2='1.4'","dB(S(2,1)) [] - $eps1='8.5' $eps2='1.6'","dB(S(2,1)) [] - $eps1='9' $eps2='1.8'","dB(S(2,1)) [] - $eps1='9.5' $eps2='1.95'","dB(S(2,1)) [] - $eps1='10' $eps2='2.1'","dB(S(2,1)) [] - $eps1='10.5' $eps2='2.3'","dB(S(2,1)) [] - $eps1='11' $eps2='2.5'","dB(S(2,1)) [] - $eps1='11.5' $eps2='2.65'","dB(S(2,1)) [] - $eps1='12' $eps2='2.8'","dB(S(2,1)) [] - $eps1='12.5' $eps2='2.95'","arg(S(2,1)) [deg] - $eps1='1' $eps2='0'","arg(S(2,1)) [deg] - $eps1='1.5' $eps2='0.05'","arg(S(2,1)) [deg] - $eps1='2' $eps2='0.1'","arg(S(2,1)) [deg] - $eps1='2.5' $eps2='0.15'","arg(S(2,1)) [deg] - $eps1='3' $eps2='0.2'","arg(S(2,1)) [deg] - $eps1='3.5' $eps2='0.25'","arg(S(2,1)) [deg] - $eps1='4' $eps2='0.3'","arg(S(2,1)) [deg] - $eps1='4.5' $eps2='0.35'","arg(S(2,1)) [deg] - $eps1='5' $eps2='0.6'","arg(S(2,1)) [deg] - $eps1='5.5' $eps2='0.75'","arg(S(2,1)) [deg] - $eps1='6' $eps2='0.9'","arg(S(2,1)) [deg] - $eps1='6.5' $eps2='1'","arg(S(2,1)) [deg] - $eps1='7' $eps2='1.1'","arg(S(2,1)) [deg] - $eps1='7.5' $eps2='1.25'","arg(S(2,1)) [deg] - $eps1='8' $eps2='1.4'","arg(S(2,1)) [deg] - $eps1='8.5' $eps2='1.6'","arg(S(2,1)) [deg] - $eps1='9' $eps2='1.8'","arg(S(2,1)) [deg] - $eps1='9.5' $eps2='1.95'","arg(S(2,1)) [deg] - $eps1='10' $eps2='2.1'","arg(S(2,1)) [deg] - $eps1='10.5' $eps2='2.3'","arg(S(2,1)) [deg] - $eps1='11' $eps2='2.5'","arg(S(2,1)) [deg] - $eps1='11.5' $eps2='2.65'","arg(S(2,1)) [deg] - $eps1='12' $eps2='2.8'","arg(S(2,1)) [deg] - $eps1='12.5' $eps2='2.95'"
0.1,-75.3222433117938,-73.524188408075,-72.4647984355228,-71.5249052880274,-71.3997780346475,-71.2297511049084,-71.0310284203956,-70.9572972845622,-70.6639461224892,-70.8641259489246,-70.6589126740509,-70.888406473701,-70.5251902404896,-70.5152699584567,-70.3014992863494,-70.2804974588331,-70.1724105237517,-70.2254129219016,-70.1272704160445,-70.1568363078738,-70.1998676615979,-70.2696607999915,-70.2079500760475,-70.2611082101679,77.9803022666081,64.9470216031126,53.6383332802045,43.3100597613819,36.8466031905103,30.1537356820778,24.2422320853994,19.0152689216225,10.661206176023,5.78201370171098,1.1710239262524,-1.91819631950467,-6.3166928352461,-9.01443880302127,-11.3423865642173,-11.4840903176699,-11.2035390569376,-12.2083605813372,-13.347657767672,-12.193316594233,-10.8325713310223,-11.4629928153905,-12.2467803696713,-12.9552281949944
0.105675146771037,-74.3593446628925,-72.5792084508427,-71.5384923187759,-70.6131073961333,-70.4824164058047,-70.3065845837973,-70.0962137684774,-70.0063217913994,-69.6977928026223,-69.8743058325585,-69.6436828577533,-69.842788696881,-69.4544683611769,-69.4125269005223,-69.1674825137252,-69.1220794664133,-69.0037250073073,-69.0413359335841,-68.9298659880433,-68.9644037720237,-69.0176195437999,-69.0787819802776,-69.0093333829255,-69.0557409469573,72.4269773474862,58.886267797295,47.1875596294391,36.5339382709299,29.9077373823408,23.0319882466645,16.9528740649371,11.5667546096586,2.93052189293813,-2.15930590055387,-7.00023274277453,-10.2713225062889,-14.9261514290067,-17.8215721502056,-20.3188995599564,-20.4670315317995,-20.1469280990265,-21.2196663805382,-22.4348929331342,-21.187347860924,-19.721970376747,-20.3980242756331,-21.235559802908,-21.993304613955
0.111350293542074,-73.4437506508345,-71.6788935744097,-70.6535577491929,-69.7388819524078,-69.5983822708451,-69.4127753985058,-69.187015224412,-69.0775408300916,-68.7504104544958,-68.9007619885737,-68.6424659186971,-68.8096284480496,-68.3951860712937,-68.3197929715133,-68.0418500240296,-67.9692460365224,-67.8387703143994,-67.8602961993785,-67.7350067969514,-67.7738698947133,-67.8370345981482,-67.8893250126374,-67.811959142181,-67.8515110002142,66.8944961363168,52.8590437460774,40.7827599891843,29.8118530083118,23.0207751223274,15.9567955135728,9.70010305459107,4.14125776356469,-4.80566920348037,-10.131092068714,-15.2273287758639,-18.7075072659286,-23.6453862728161,-26.767602449593,-29.460718638858,-29.6249839672012,-29.2628241995394,-30.4157465398875,-31.7182575372776,-30.3655381217196,-28.7804374924253,-29.5103708795219,-30.4094578846121,-31.22392660446
0.117025440313112,-72.5701982907237,-70.8178726646778,-69.8045559143389,-68.8968275747723,-68.7424444102233,-68.5433234893544,-68.2987186363629,-68.1665649244459,-67.8181153760812,-67.9404055405722,-67.652819376667,-67.7871378823154,-67.3462841998966,-67.2368330799223,-66.9251124856844,-66.8226456794085,-66.6780018058765,-66.6831200875403,-66.5438854483888,-66.5859890117507,-66.6583573273682,-66.7017957883177,-66.6165901449289,-66.6494361891975,61.3830737727143,46.8641423413552,34.4205455913232,23.1378985290501,16.1772906520336,8.91745755941651,2.47118272399549,-3.27579491646164,-12.563428382681,-18.1508833766134,-23.529571177967,-27.2471729240201,-32.4956265378727,-35.8757422097601,-38.7934222590841,-38.9874200557227,-38.5828105212673,-39.8290464158862,-41.2308441997643,-39.7614723462168,-38.0415318177364,-38.8339688633936,-39.8027211514584,-40.6816049040088
0.122700587084149,-71.734134794326,-69.9915028995575,-68.9868064440859,-68.0823254188075,-67.9101740151574,-67.6940391468386,-67.4274234368313,-67.2698251136303,-66.8980361477171,-66.9909810862245,-66.6731825918543,-66.7744666804046,-66.3077077759488,-66.1645446105926,-65.819078432745,-65.6844155613301,-65.5234460927428,-65.512288798372,-65.3594352400254,-65.4032215495904,-65.4834815868902,-65.5183950815887,-65.4257320572364,-65.4523229229727,55.8927576878826,40.9001824774843,28.0974417373955,16.5062956917265,9.36922967233516,1.90390649512891,-4.74575904282338,-10.6979053784724,-20.3573454973833,-26.2343079169589,-31.9237286002929,-35.9075374870164,-41.4939744772326,-45.1638662849084,-48.3361094466805,-48.5773761097259,-48.1325925678701,-49.4855703931901,-50.998617893473,-49.4025665376473,-47.5335286087439,-48.3970897858153,-49.4435062191413,-50.3942825832417
0.128375733855186,-70.9315905700796,-69.1957421796464,-68.1962558219089,-67.2914057094941,-67.0978030378335,-66.8614004777128,-66.5699030557089,-66.3844354641382,-65.9879879099765,-66.0509435287329,-65.7027472412476,-65.7715627712402,-65.2802385200044,-65.1047512057767,-64.726601147862,-64.5579659751287,-64.3785291621581,-64.3517512461989,-64.186097565486,-64.2295721140811,-64.3158197475608,-64.342884883767,-64.2434828885913,-64.2645966021331,50.4234601782616,34.9656392757365,21.8099290406352,9.91139143027495,2.58891353961232,-5.09332913026128,-11.9617952035162,-18.1375825727842,-28.2005764662342,-34.3950628805144,-40.423895435783,-44.7022651408359,-50.6527795910888,-54.6434465316875,-58.0997804684245,-58.4093422871124,-57.9297559320366,-59.4023016715824,-61.0376679466336,-59.3073999822855,-57.277181477904,-58.2198079475106,-59.3511274232655,-60.3804400690736
0.134050880626223,-70.1590789922017,-68.4270485322113,-67.4293735332748,-66.5206385838799,-66.3021140997888,-66.042441548811,-65.7234946377945,-65.508088669932,-65.0863702498514,-65.1193544461443,-64.741340640157,-64.7790286239094,-64.2653056093381,-64.0599387405934,-63.6512416454736,-63.4476316110694,-63.2477725505018,-63.2065750225836,-63.0294425246598,-63.0702648965105,-63.1600641304084,-63.1803063884893,-63.075216827359,-63.0919508820242,44.974959112663,29.0588689084926,15.554473031816,3.34770992206603,-4.17096350021894,-12.0831536718652,-19.1872457523981,-25.6063893019357,-36.1048514485284,-42.6448137780426,-49.0412164289548,-53.6409907249409,-59.9789108479388,-64.3184187072402,-68.0856155596137,-68.4869349152265,-67.9811592071564,-69.5842452478065,-71.3507671144499,-69.4825607122244,-67.2827370092234,-68.3109041689607,-69.5327537712967,-70.6455186552437
0.13972602739726,-69.4135176496936,-67.6823005512982,-66.6830687919403,-65.767047993733,-65.5203509361271,-65.2346651018868,-64.8860138985701,-64.6389734273454,-64.1920840165681,-64.1957893119598,-63.7893079975274,-63.797961195395,-63.2647529679214,-63.0329137545697,-62.5967851799112,-62.3581481023765,-62.1362978112521,-62.0823715250063,-61.8954976764925,-61.9311820040149,-62.0217274540475,-62.0364738396011,-61.9270204834776,-61.9407194267662,39.546909413253,23.1781302941092,9.32755036160241,-3.19006561070164,-10.9173498514882,-19.0739334055547,-26.431711535008,-33.1149531998086,-44.0804051427322,-50.9930102464145,-57.7835587383546,-62.7287981888475,-69.47305257214,-74.1842411638368,-78.2837745184694,-78.8008704772546,-78.2804260915583,-80.0216633393757,-81.9244902779547,-79.9195705901586,-77.5470153797082,-78.6647209768972,-79.9801377409234,-81.1786698862682
0.145401174168297,-68.6921655322689,-66.9587323709725,-65.9546234523495,-65.0280417789389,-64.7501483332002,-64.4359716870297,-64.0556867081632,-63.7757083072402,-63.3044598613084,-63.2802461600953,-62.8473814660871,-62.8297611845574,-62.2805594709061,-62.0263828802102,-61.5666538156884,-61.2939484165338,-61.0491181424797,-60.9844777755098,-60.7898178449297,-60.8180328195055,-60.9064460320757,-60.9172019530499,-60.8048442769023,-60.8169611221999,34.1388827456767,17.3216051422608,3.12566634486935,-9.70706628638465,-17.6568384303212,-26.0735164336515,-33.7040887544651,-40.6729480201794,-52.1358547813995,-59.4466615421424,-66.6551516803947,-71.9657639818962,-79.1292737019852,-84.2274788771754,-88.67299162048,-89.3279369242893,-88.8062804392857,-90.6883933556976,-92.72761861645,-90.5928188396816,-88.0510045647951,-89.2588068620743,-90.6673274494795,-91.9503589063652
0.151076320939335,-67.9925701148442,-66.2538817431306,-65.2416370760202,-64.3013543954363,-63.9894739831612,-63.6446034195596,-63.231094487743,-62.9172865568165,-62.4231873830056,-62.3730480403789,-61.9165310229235,-61.8759109519252,-61.3145144931049,-61.0424818792643,-60.5632585456107,-60.2583416590778,-59.9902585225987,-59.9169544067072,-59.7163719551629,-59.7353107688709,-59.8190529673713,-59.8272976703145,-59.7134186028359,-59.7252916638006,28.750316773572,11.487412982794,-3.05462927171861,-16.2082394051419,-24.3956838915036,-33.0892451079019,-41.012561236637,-48.2890368456098,-60.2780694879872,-68.0101000986685,-75.6562885197966,-81.3466955765399,-88.9350003076417,-94.4262559391334,-99.2215839824217,-100.03172162748,-99.5226085236588,-101.542313741366,-103.71210034486,-101.459585405816,-98.7590888606094,-100.053453437609,-101.550545476293,-102.912893989578
0.156751467710372,-67.3125274820765,-65.5655469341769,-64.5419816481312,-63.5850005784312,-63.2365817234715,-62.8590973435339,-62.4111270744633,-62.0630269999796,-61.5482454960668,-61.4747359486707,-60.9977946761822,-60.9377258614684,-60.3678788388579,-60.0823100160103,-59.5873882739037,-59.2527041845564,-58.9618322092042,-58.881570626654,-58.6764507243728,-58.6851911027639,-58.7625331194054,-58.7694607793223,-58.6551010494821,-58.6676951309405,23.3805827809936,5.67362421433345,-9.2167319875818,-22.6983510351606,-31.1398032067567,-40.127959511698,-48.3645803023907,-55.9707947087831,-68.5120014813658,-76.6847770245448,-84.7831799416517,-90.8612199039837,-98.8716753554676,-104.751816667709,-109.890254919813,-110.865634525255,-110.380993845588,-112.528681851025,-114.817343529532,-112.463214380084,-109.620943364994,-110.994131697257,-112.571267535728,-114.003910492342
0.162426614481409,-66.6500467964578,-64.8917510621378,-63.8537640833153,-62.8772363722414,-62.4899725228626,-62.0782468351802,-61.5949433795494,-61.2125283684295,-60.6798275692794,-60.5859497133667,-60.0920931968645,-60.016097931106,-59.4410635058008,-59.1455471166488,-58.6377756318399,-58.2758636555373,-57.9632713723098,-57.8770071210029,-57.6678730016887,-57.6666377318115,-57.7370800551685,-57.7433257016389,-57.628921775349,-57.6425780501119,18.0289613333273,-0.121729745294632,-15.3639772018204,-29.1819850626788,-37.894786159603,-47.19599197791,-55.7668203217447,-63.7246030193402,-76.8405396842347,-85.4691458660031,-94.0280494438903,-100.494335609713,-108.916133997132,-115.171247665921,-120.636426599579,-121.778214993014,-121.32594003685,-123.586524538221,-125.977778386349,-123.539471469836,-120.576429084182,-122.017240323456,-123.662794066746,-125.153922026033
0.168101761252446,-66.0033222977509,-64.2307121135451,-63.1752947836381,-62.1765269842723,-61.7483620662486,-61.3010688104412,-60.7819350860541,-60.3656232699506,-59.8182598465102,-59.7072974747608,-59.2000406405333,-59.111259308636,-58.5333931251241,-58.2302330430816,-57.7109391828894,-57.3238426796722,-56.9909156509814,-56.898501491683,-56.6847341642881,-56.6749603559685,-56.7394906062737,-56.7449113820994,-56.6300995308363,-56.6443624905125,12.6946559115695,-5.90064378309039,-21.4996301590912,-35.6635352176289,-44.6658944963037,-54.2991521331542,-63.2251286924461,-71.5555361204882,-85.2644014516654,-94.3586947308543,-103.379550724528,-110.227504289531,-119.042786135781,-125.65111088867,-131.419651273679,-132.720019200724,-132.30220007412,-134.657122273407,-137.132417110171,-134.625468113234,-131.563283729483,-133.058579004467,-134.759488529961,-136.296264081401
0.173776908023483,-65.3707089162475,-63.5808182997113,-62.5050610811552,-61.4815187807358,-61.0106531409929,-60.5267744681198,-59.971692138197,-59.5223297420966,-58.9639118341582,-58.8392229842705,-58.3217686322608,-58.2225985488329,-57.6429618871273,-57.3327634645432,-56.8013603627559,-56.3900485841523,-56.0380919243177,-55.9380841694807,-55.7177860669708,-55.701980038671,-55.763089506682,-55.7666546580553,-55.6501930214247,-55.6637601312103,7.37679981113157,-11.6651365781233,-27.6268874474317,-42.1472229645127,-51.4580619793423,-61.442705346902,-70.7444592973111,-79.4672449027588,-93.7821087777176,-103.346168325423,-112.823554121001,-120.04025417919,-129.226205455447,-136.161500495684,-142.207123107192,-143.650830106744,-143.262889435996,-145.693042507417,-148.234598941399,-145.669293287859,-142.526172167081,-144.062958545182,-145.806865139522,-147.377517363746
0.179452054794521,-64.7507024334708,-62.9406064024079,-61.8417049159369,-60.7910173264909,-60.2759119676266,-59.7547432051217,-59.1639682880956,-58.6827981238615,-58.1171049649039,-57.981876612276,-57.4567857789652,-57.3485602503371,-56.7666710495923,-56.4481140446651,-55.9019656104407,-55.4658789053611,-55.0956821408782,-54.9853132854458,-54.7553728514857,-54.7367705826102,-54.7982224532462,-54.7980360581653,-54.6778595426349,-54.6886592684938,2.07445698839314,-17.417241430896,-33.7488741174203,-48.6370884108011,-58.275887656117,-68.6313450616554,-78.3288113099298,-87.4618584059341,-102.390047818355,-112.422024348513,-122.344288346983,-129.912172156586,-139.444097565281,-146.679894253123,-152.978369174914,-154.545836168285,-154.176804280187,-156.665766837705,-159.25969010079,-156.638416776745,-153.425305258009,-154.992978353442,-156.770420959616,-158.366350883013
0.185127201565558,-64.1419223767497,-62.3087439819228,-61.1840035628294,-60.103967680716,-59.5433473735992,-58.984497507093,-58.358645369268,-57.8472537023103,-57.2780171547502,-57.1350042016292,-56.6038925842397,-56.4866497658977,-55.9003933782154,-55.5702574178954,-55.0048231073079,-54.5416162933992,-54.1530532236272,-54.028383648051,-53.7846855242798,-53.7667949277039,-53.8331983166191,-53.8266410794073,-53.7000272742357,-53.7053995126857,-3.21336788201215,-23.1590031079336,-39.8686414803024,-55.136993634966,-65.1236310029911,-75.8691624220436,-85.9811665842534,-95.5399210220176,-111.082688785796,-121.575130081609,-131.925770433099,-139.825068241304,-149.67996874645,-157.194234205497,-163.728428365789,-165.39980895159,-165.033697980514,-167.570829241088,-170.209907109899,-167.525460507274,-164.243046674755,-165.835411320043,-167.641716604061,-169.259226176242
0.190802348336595,-63.5430974690915,-61.6840136585704,-60.5308535070346,-59.4194363380115,-58.8122918840862,-58.2156787805872,-57.5556956763985,-57.0159343002482,-56.4465955792389,-56.2978663575829,-55.7611671006452,-55.633546958922,-55.0392767781574,-54.6927075295463,-54.1019407095464,-53.6074503712033,-53.1991658414056,-53.0553659115454,-52.793110761868,-52.7792019324316,-52.8554712967492,-52.8394263649076,-52.703235790459,-52.7001740468587,-8.48773105728786,-28.8924749995083,-45.9891699466815,-61.6506236999188,-72.0051997445398,-83.1596153677297,-93.7034440799527,-103.700386407624,-119.852971465412,-130.793669180444,-141.553384648482,-149.765051592141,-159.925318008228,-167.704871160084,-174.469253582468,-176.228960303801,-175.84701922905,-178.430102887503,178.883957575803,-178.350967643006,-174.987766825019,-176.604628663281,-178.44136242712,179.917015710845
0.196477495107632,-62.953053051516,-61.065299777777,-59.8812557694625,-58.7365969748621,-58.082184409622,-57.4480229811528,-56.7551419473919,-56.1890255216297,-55.6224822427096,-55.4691993470236,-54.9260273482165,-54.7853175153555,-54.1781355030133,-53.8091182693027,-53.1860675013436,-52.6544994845427,-52.2237062685748,-52.0554334384541,-51.7695324214152,-51.7621131469197,-51.8528735251136,-51.8240009953128,-51.6749581269289,-51.6603884808354,-13.7497457191004,-34.6197168226734,-52.1133687239351,-68.1814862560715,-78.9241423710024,-90.5055030203546,-101.496480917192,-111.940687564139,-128.692801463313,-140.066203168704,-151.215452088788,-159.72427489088,-170.181062747014,-178.225267638021,174.770524475943,172.929289609775,173.345676778879,170.708316505436,167.963150839711,170.836328475491,174.304881338334,172.656563964805,170.780589190146,169.105243921326
0.202152641878669,-62.3707003109295,-60.4515768279749,-59.2343039571615,-58.0547165393091,-57.3525537658394,-56.681335560748,-55.9570154023351,-55.3665943399981,-54.8049609245723,-54.6472250659626,-54.0953661979776,-53.9376967234604,-53.3118855967968,-52.9138785300701,-52.2514453750319,-51.6757727956238,-51.2181697022567,-51.0200301140805,-50.7055775260358,-50.7058521831227,-50.8148025200742,-50.7698527706387,-50.6048651525807,-50.5759619858141,-19.0005770300493,-40.3427935221575,-58.2440786211918,-74.7329119565909,-85.8836368802932,-97.9089489747688,-109.360049711976,-120.256901292378,-137.593721011202,-149.382790541342,-160.904617333829,-169.702166250221,179.541882314593,171.218452240231,163.947224406976,162.018185285495,162.484101976717,159.771920301058,156.943175266115,159.960929763443,163.572558840392,161.877859700267,159.945872093225,158.219475986144
0.207827788649706,-61.7950269894539,-59.8418992467103,-58.5891733275481,-57.3731436386537,-56.6230028451868,-55.9154657330263,-55.1613129854448,-54.5485289114554,-53.9929321628172,-53.8297116759649,-53.2657450816407,-53.0864163768026,-52.4359864214831,-52.0026702665043,-51.2944955126725,-50.6670775983449,-50.176909069755,-49.944033224531,-49.5969002080488,-49.6041875178063,-49.7333911412873,-49.6695746870209,-49.4861159258476,-49.440688117362,-24.2414426933824,-46.0637754662137,-64.3840740413675,-81.3080544193983,-92.8864847084717,-105.37139937788,-117.292922941672,-128.644017373678,-146.547662522578,-158.73606697504,-170.618923631545,-179.706056840671,169.222848389474,160.588946812251,153.004877377011,150.96487187654,151.487989196216,148.666973274157,145.717385073444,148.923231812946,152.728074853525,150.963544274007,148.950359906777,147.147490987472
