Freq [GHz],"dB(S(2,1)) [] - $eps1='1' $eps2='0'","dB(S(2,1)) [] - $eps1='2' $eps2='0.1'","dB(S(2,1)) [] - $eps1='3' $eps2='0.2'","dB(S(2,1)) [] - $eps1='4' $eps2='0.3'","dB(S(2,1)) [] - $eps1='5' $eps2='0.6'","dB(S(2,1)) [] - $eps1='6' $eps2='0.9'","dB(S(2,1)) [] - $eps1='7' $eps2='1.1'","dB(S(2,1)) [] - $eps1='8' $eps2='1.4'","dB(S(2,1)) [] - $eps1='9' $eps2='1.8'","arg(S(2,1)) [deg] - $eps1='1' $eps2='0'","arg(S(2,1)) [deg] - $eps1='2' $eps2='0.1'","arg(S(2,1)) [deg] - $eps1='3' $eps2='0.2'","arg(S(2,1)) [deg] - $eps1='4' $eps2='0.3'","arg(S(2,1)) [deg] - $eps1='5' $eps2='0.6'","arg(S(2,1)) [deg] - $eps1='6' $eps2='0.9'","arg(S(2,1)) [deg] - $eps1='7' $eps2='1.1'","arg(S(2,1)) [deg] - $eps1='8' $eps2='1.4'","arg(S(2,1)) [deg] - $eps1='9' $eps2='1.8'"
0.1,-71.9945626542195,-68.6750414818675,-67.2687343704384,-66.5913221898608,-66.3084232562728,-66.187798815881,-65.942306286989,-66.0927966237233,-66.0445953246114,90.7849207962676,74.7865012770137,63.0959201372987,53.7913648564581,44.2740420786344,37.5553835750284,31.6270028995428,29.0423035040449,28.8714427525936
0.105675146771037,-71.0286468923704,-67.7277696644462,-66.3404215890018,-65.6740108564962,-65.3965999599123,-65.264177888522,-65.0002288397215,-65.1186063981016,-65.0575215541461,86.1891001177065,69.4776591730797,57.3331962540485,47.7438126528986,38.0242994059479,31.1451287411645,25.0568365416227,22.4028324569506,22.2445645234467
0.111350293542074,-70.1105251874047,-66.8261543345325,-65.4545466866712,-64.7946376722157,-64.5161520813449,-64.3656218887469,-64.0778399614018,-64.1588438040245,-64.0829895961338,81.5929840390765,64.1834605330449,51.6033973749177,41.7416018055102,31.819437133362,24.7721931024427,18.5110748018179,15.7761534201367,15.6396145812054
0.117025440313112,-69.2350686469477,-65.9649488304769,-64.6056926389709,-63.9477192975324,-63.6618386723846,-63.4871598693385,-63.1703892954205,-63.2087297143124,-63.1158295490359,76.9990670037117,58.9054237701381,45.9057931431081,35.7809129672709,25.6513908556515,18.4239344173287,11.9732948994209,9.14148243391051,9.03528701371409
0.122700587084149,-68.3978461712269,-65.1396075913237,-63.7891714368769,-63.1285344724527,-62.8291927458346,-62.6246136744752,-62.2739384135924,-62.2643503938123,-62.1517159997399,72.4093535385915,53.6445585159105,40.2392218111225,29.8576614895714,19.5122208468081,12.0881969134717,5.42761071123406,2.47825903232944,2.41011287830439
0.128375733855186,-67.5949992033874,-64.3461633768532,-63.0008966376798,-62.3329902916302,-62.0143847961849,-61.7744608067881,-61.3852335551952,-61.3225446777546,-61.1870570268465,67.8254526373483,48.4014953932178,34.6021720617817,23.9675749414538,13.3941035422149,5.75319953424671,-1.14150865911409,-4.23407705137885,-4.25784930173777
0.134050880626223,-66.8231423504333,-63.5811274602146,-62.2372842399139,-61.5575177274039,-61.2141177047728,-60.9337315363699,-60.5016148128288,-60.3808354757916,-60.2189294341445,63.2486502768385,43.1765189582185,28.9928601347368,18.1062395913694,7.2893158705614,-0.592562840519492,-7.7493879234974,-11.0162947258891,-10.9913092903469
0.13972602739726,-66.0792857568145,-62.841412453376,-61.4951718977455,-60.7989891306069,-60.4255437669773,-60.099932181617,-59.6209553179706,-59.4373970293152,-59.2450558854262,58.6799621618762,37.9696458539843,23.4092723576585,12.2691368489817,1.19021386337458,-6.96040470615419,-14.4112581898352,-17.8894492177874,-17.813985093554
0.145401174168297,-65.3607721410684,-62.1242706891042,-60.7717550608638,-60.0546508262872,-59.6461997087363,-59.2709886687046,-58.7416238383716,-58.491049024623,-58.2638207797699,54.1201764818181,32.7806317106786,17.8492102038045,6.45166295441498,-4.91079222796126,-13.3615201328845,-21.1423182281347,-24.8749579723189,-24.7507770941038
0.151076320939335,-64.6652258959115,-61.4272420791602,-60.0645346431427,-59.3220692403191,-58.8739568925309,-58.4452070354952,-57.8624661971031,-57.5412850085729,-57.2743207091303,49.5698858454151,27.6090533266966,12.3103183190485,0.649146570896704,-11.0212617357093,-19.8070255745812,-27.9577364104303,-31.9944724456968,-31.8278066520085
0.156751467710372,-63.9905121734969,-60.7481146667266,-59.3712743285101,-58.5990872459191,-58.1069817022967,-57.6212465138203,-56.9828017475258,-56.5883093638491,-56.2764516823536,45.0295114054808,22.4542985261275,6.79010972583971,-5.14314738278484,-17.1487452115913,-26.3079761008613,-34.8725730996031,-39.2695481020671,-39.0722713543967
0.162426614481409,-63.334702511468,-60.0848901429217,-58.689965099054,-57.8837881937079,-57.343705657653,-56.7981029833569,-56.1024301688029,-55.6330961838891,-55.2710240691594,40.4993253629038,17.315592847486,1.28598357555735,-10.9300139930245,-23.3007958571652,-32.8753503746598,-41.9016135500443,-46.721192035118,-46.5120139687734
0.168101761252446,-62.6960469462783,-59.4357537930333,-58.0187958344178,-57.1744669601527,-56.5828029763722,-55.9751009051488,-55.2216447601819,-54.6774426674479,-54.259899259078,35.9794667561762,12.1920214584075,-4.20475963271888,-16.7163090329676,-29.4849765665164,-39.519988935878,-49.0590844451041,-54.3690000235359,-54.1746803852979
0.173776908023483,-62.0729505315486,-58.7990537293771,-57.356129263896,-56.4696068314769,-55.823174429301,-55.151890517076,-54.341245270733,-53.7240080917801,-53.2461270074633,31.4699545119344,7.08254518074151,-9.68491057102946,-22.5069502516216,-35.7088521318794,-46.2524893664053,-56.358239830526,-62.2300570621079,-62.0863519058136
0.179452054794521,-61.4639533361266,-58.1732792118409,-56.7004807057528,-55.7678599784806,-55.0639354212884,-54.3284482029608,-53.4625437495313,-52.7763062901846,-52.2340501968825,26.9706983627857,1.98601818077261,-15.1573416348471,-28.3069199389232,-41.9799701004187,-53.0830414965601,-63.810803356695,-70.3173787058052,-70.2695059544893
0.185127201565558,-60.8677141005726,-57.5570444290839,-56.050501562194,-55.0680324566574,-54.3044089814928,-53.505077668611,-52.5873525783868,-51.8386361418161,-51.2293271231025,22.4815085458301,-3.09882215342475,-20.6250010620363,-34.1212626287064,-48.3058206439859,-60.0212001357122,-71.4262658306284,-78.6381805412075,-78.7402622903467
0.190802348336595,-60.2829961098266,-56.9490736849157,-55.4049642240524,-54.3690720488413,-53.5441204078028,-52.6824067053415,-51.7179444989246,-50.915897509557,-50.2388016706038,18.0021025399675,-8.17332710553132,-26.0909097221476,-39.9550881293674,-54.6937791646272,-67.075592936121,-79.2110597512659,-87.1918961701984,-87.5050164182281
0.196477495107632,-59.7086548483635,-56.3481899028472,-54.7627500633437,-53.67005894882,-52.782794895691,-51.8613772111832,-50.8569719842603,-50.0132676477474,-49.2701477681646,13.5321119114048,-13.238938421941,-31.5581586861798,-45.8135621405119,-61.1510239431124,-74.2535587365232,-87.16766512102,-95.9683996990316,-96.5568303317557
0.202152641878669,-59.1436278051596,-55.7533032148189,-54.1228391079396,-52.9701986301629,-52.0203541743248,-51.0432224826859,-50.0073358202325,-49.1357808615332,-48.3312338336,9.07108744186875,-18.2971830274479,-37.0299051366832,-51.7019002134072,-67.6844282362852,-81.5607327312315,-95.2937417688525,-104.946805080538,-105.872310507654
0.207827788649706,-58.5869254488142,-55.1634023286329,-53.484301045144,-52.2688165751324,-51.2569136312126,-50.2294271974989,-49.1719981016105,-48.2877450614647,-47.4292139410159,4.61850323676155,-23.3496676433982,-42.509372538785,-57.6253500464296,-74.3004242580977,-89.0005917767532,-103.581424477085,-114.095271994781,-115.410018491758
0.213502935420744,-58.0376236403376,-54.5775464929049,-52.8462882737225,-51.5653542756151,-50.4927756355648,-49.4216656883055,-48.353742648361,-47.4721591492274,-46.5694535780248,0.173760473009784,-28.3980767657699,-47.9998470283029,-63.5891711081569,-81.0048412876034,-96.5740030535993,-112.016950824478,-123.372368521723,-125.111497242589
0.219178082191781,-57.4948565936373,-53.9948584749296,-52.2080293522213,-50.8593666490835,-49.7284196051298,-48.6217153273043,-47.5548999220107,-46.6901863933333,-45.7545050316755,-4.26380953942406,-33.4441679943797,-53.5046760034243,-69.5986052752075,-87.8027173018759,-104.278818732338,-120.580792072557,-132.729945001501,-134.905567842916
0.224853228962818,-56.9578109854938,-53.4145183511102,-51.5688241633806,-50.1505197903191,-48.9644850728221,-47.831344568063,-46.7770655619519,-45.9408295745074,-44.9834017696025,-8.69494390683268,-38.4897770336683,-59.0272640876291,-75.6588353578699,-94.6980933949243,-112.109587579859,-129.248414441634,-142.117448865465,-144.715617518653
0.230528375733855,-56.425720932848,-52.8357593416338,-50.9280391656887,-49.4385889592648,-48.2017473111977,-47.0521794733515,-46.020852748419,-45.2208494981734,-44.2514867975499,-13.1204451603031,-43.5367999002395,-64.5710695624227,-81.7749381764338,-101.693798323687,-120.057451067709,-137.991706389336,-151.486794762986,-154.468507382943
0.236203522504892,-55.8978631970949,-52.2578611005092,-50.2851043320198,-48.7234566766869,-47.4410832330011,-46.2855571033173,-45.2857201062172,-44.5250107900116,-43.5508342326993,-17.5411807545603,-48.5872191254756,-70.1395991609724,-87.9518232790974,-108.791240979468,-128.110291871273,-146.780976725876,-160.797175782783,-164.103090338158
0.24187866927593,-55.3735532326032,-51.6801475262425,-49.6395094495756,-48.0051090184977,-46.6834265632394,-45.5323787108223,-44.5699082427102,-43.8465393416169,-42.8711329730518,-21.9580821140967,-53.6430806424531,-75.7363995780063,-94.1941645616649,-115.99022971403,-136.253182696768,-155.587300658394,-170.018692136942,-173.576503719493
0.247553816046967,-54.8521414852259,-51.1019822553759,-48.9908019271479,-47.2836314125181,-45.9297130866245,-44.7929797706512,-43.8704991700984,-43.1777251358861,-42.2007847226368,-26.3721439512777,-58.706502939808,-81.3650513126185,-100.506318275221,-123.288842208636,-144.469144323833,-164.384904890855,-179.134600991706,177.13269838362
0.253228962818004,-54.3330100808157,-50.5227657119956,-48.338584279945,-46.5592013981389,-45.1808160946297,-44.0670338215146,-43.1835898388032,-42.5105424639185,-41.5279615198472,-30.78442527231,-63.7796820644157,-87.0291552009251,-106.892236681862,-130.683375211379,-152.740177869779,-173.153278158784,171.858051276857,168.024410941299
0.258904109589041,-53.815570101495,-49.9419321060615,-47.682511931428,-45.8320790155604,-44.4374760476956,-43.3535048054611,-42.5045514304878,-41.8372051573566,-40.841455831611,-35.1960483571832,-68.8648872096168,-92.7323211248718,-113.355374270291,-138.168397660982,-161.048487682862,178.121242757639,162.949037345632,159.078936289927
0.264579256360078,-53.299258794799,-49.3589472257415,-47.0222911035938,-45.1025935354306,-43.7002281901224,-42.6506566193173,-41.8283344540904,-41.1506053664865,-40.1312692783317,-39.6082012166451,-73.9644646881857,-98.4781526833208,-119.898595371155,-145.736928607071,-169.377773289038,169.444530662398,154.11634626815,150.25990982833
0.270254403131115,-52.7835373519626,-48.7733059586595,-46.3576764624179,-44.3711261089559,-42.9693342982604,-41.9561199507442,-41.1497807939582,-40.4446381333477,-39.3889765063256,-44.0221384742009,-79.0808411693642,-104.270230363353,-126.524086053485,-153.380750024143,-177.714458805774,160.814364976898,145.327942335369,141.517268528386
0.275929549902153,-52.2678886802435,-48.184530607972,-45.6884685984185,-43.6380882350029,-42.2447251495007,-41.2670090221366,-40.463912690741,-39.7144327133948,-38.607949021701,-48.4391826275485,-84.2165258105605,-110.112093167591,-133.233280950521,-161.090851506434,173.95126157318,152.220662584157,136.543555802894,132.789719488667
0.28160469667319,-51.7518155479164,-47.5921688323719,-45.0145109798935,-42.9038959487402,-41.5259599891832,-40.5800744420841,-39.7661819887213,-38.9565295824926,-37.7835367838047,-52.8607272807641,-89.3741128694825,-116.007219007809,-140.026812798681,-168.85798709868,165.624646365436,143.646089258536,127.716358416248,124.006544183971
0.287279843444227,-51.2348387892534,-46.9957924470431,-44.3356863644616,-42.1689401372369,-40.8122083621364,-39.8918760331827,-39.0526764366392,-38.1690427066286,-36.9132995809904,-57.2882393265135,-94.556286411037,-121.959004476279,-146.904494543303,-176.673310060153,157.305940148044,135.066904141041,118.794514269524,115.088892615868
0.292954990215264,-50.7164957947,-46.3949958657717,-43.6519124763343,-41.4335540638907,-40.1022576634016,-39.1989601444759,-38.3202892611619,-37.3518320060116,-35.9973649491308,-61.7232625516787,-99.7658226681594,-127.97074556423,-153.865345463506,175.470961399049,148.990207815969,126.453924725494,109.72281075186,105.950998445417
0.298630136986301,-50.1963390181817,-45.7893949662823,-42.9631369280453,-40.6979795546623,-39.3945468205779,-38.4980295840662,-37.5668633929709,-36.5067073725351,-35.0389654969583,-66.167421219649,-105.005596698237,-134.045620445611,-160.907667392406,167.580896518231,140.667435432165,117.773560624214,100.444563572753,96.5020497122961
0.304305283757339,-49.6739346883483,-45.1786258891843,-42.2693310455,-39.9623338983057,-38.687224141845,-37.7860991324564,-36.7913218908209,-35.6376461247311,-34.0451610223537,-70.6224248076368,-110.278585155658,-140.186675509947,-168.02918179757,159.660271793088,132.322841629864,108.988925242583,90.9042129866655,86.6498193230285
0.309980430528376,-49.148861693286,-44.5623442420638,-41.5704828968497,-39.2265797645513,-37.9782252454598,-37.0606339914374,-35.9937919785592,-34.7509787683088,-33.0276511873443,-75.0900731195499,-115.587873943067,-146.39681777612,-175.227224495406,151.710096218086,123.93734791224,100.061090150705,81.0509687433282,76.3075509609698
0.315655577299413,-48.6207104801423,-43.940224138247,-40.8665893627922,-38.4905010346112,-37.2653655008072,-36.3196722808021,-35.1757223454998,-33.8554470303392,-32.0033948678614,-79.5722616538011,-120.93666396561,-152.678815179944,177.500998470693,143.728269055819,115.488169981245,90.9505920379837,70.8437906018541,65.4057195187792
0.32133072407045,-48.0890821652178,-43.3119574640808,-40.1576474603937,-37.7536868692378,-36.5464411732368,-35.561934126384,-34.339980590158,-32.9619807202218,-30.9944655793606,-84.0709883197334,-126.328278245986,-159.03530656509,170.158106228101,135.709378989171,106.949513759527,81.6193236453909,60.2576531655636,53.9094133466436
0.327005870841487,-47.5535877617535,-42.677253195821,-39.443645113031,-37.0155264112471,-35.8193342249195,-34.7869195041946,-33.4909019311973,-32.0830156597019,-30.026309459059,-88.5883604914692,-131.766172196362,-165.468826144967,162.746199896061,127.644646917425,98.2933853413214,72.0329203009273,49.2903427596219,41.8391289208663
0.332681017612524,-47.0138474332123,-42.035836793199,-38.724551794494,-36.2752158343709,-35.0821165880565,-33.9949949680192,-32.6342422280806,-31.231211579848,-29.1237071668053,-93.126603396543,-137.253942218684,-171.981842620806,155.266499382601,119.522002399761,89.4905454483036,62.1636734274617,37.9680520547191,29.2873205659954
0.338356164383562,-46.4694899571494,-41.3874498465979,-38.0003094692515,-35.5317785186154,-34.3331512319969,-33.1874641725677,-31.7769733371863,-30.4176173065851,-28.3047789455436,-97.6880686124389,-142.795337767642,-178.576815981429,147.718979583504,111.32628332132,80.5116519413816,51.9938259834406,26.3471239999223,16.417971737426
0.344031311154599,-45.920152352693,-40.7318496280329,-37.27082456799,-34.7840985587464,-33.5711883889757,-32.3666117636169,-30.9268585948152,-29.6496268363663,-27.5752159370616,-102.275244437746,-148.394277551595,174.743725653587,140.102026391537,103.039552628227,71.3286330334751,41.5188303363384,14.509377612528,3.43901788793644
0.349706457925636,-45.3654794938046,-40.0688089265407,-36.5359616208674,-34.0309667783787,-32.7954556929699,-31.53570251364,-30.0917738314374,-28.9293638984909,-26.9260293463227,-106.890766924105,-154.054862672268,167.977090018922,132.412133806631,94.6415290876138,61.9163076808185,30.7498198060571,2.5502264180367,-9.44741683394727
0.355381604696673,-44.8051240807407,-39.3981161521759,-35.7955395043323,-33.2711380568925,-32.0057405375466,-30.6989109874811,-29.2788062304583,-28.2531554149797,-26.3365551147306,-111.537431869464,-159.781399142418,161.120304225111,124.643658248556,86.1101390974041,52.2542148726283,19.714300355801,-9.43797452142826,-22.0939496072344
0.36105675146771,-44.2387465868177,-38.7195756212722,-35.0493310850376,-32.5033980499121,-31.2024618827309,-29.8611546690864,-28.4932635934887,-27.612373843743,-25.7809408906032,-116.218208728158,-165.578418620591,154.169980731006,116.788645825981,77.4222030929709,42.3285145430928,8.4541255739422,-21.3822096989207,-34.4318615280921
0.366731898238748,-43.6660155673707,-38.0330083597247,-34.2970673840466,-31.7266374928703,-30.3867260653645,-29.0278080495747,-27.7378211827406,-26.9953281965945,-25.2343658592965,-120.936255475263,-171.450706389137,147.122168683766,108.836744838995,68.5542693046605,32.1337048335956,-2.97963156731744,-33.2395460732858,-46.4650773746824
0.372407045009785,-43.0866080886461,-37.338253272504,-33.5384469308034,-30.9399319383187,-29.5603583799673,-28.2042933510995,-27.0120638985989,-26.3894813436989,-24.6765680109655,-125.694935012418,-177.403331862867,139.972194064029,100.775213667226,59.4836029644014,21.6737703757498,-14.53432064452,-45.0000546118311,-58.2482000729131
0.378082191780822,-42.5002104637832,-36.6351692890272,-32.7731514446086,-30.1426246895854,-28.7258990099963,-27.3955750677587,-26.3126008371073,-25.7833163765786,-24.0927716297354,-130.497833501447,176.558314157475,132.714497459602,92.5890360852291,50.1893149563553,10.9623163805533,-26.164255294481,-56.6831971846417,-69.8646948696613
0.383757338551859,-41.9065192609949,-35.9236381964521,-32.0008681555839,-29.3344104856868,-27.886549675718,-26.6056266399932,-25.6337549329787,-25.1675378410846,-23.473308600384,-135.34878041049,170.428479592861,125.342476080813,84.2611521941437,40.6535798734891,0.0213034347094028,-37.8380635555063,-68.3308556526533,-81.4122140472461
0.389432485322896,-41.3052427218591,-35.2035689057471,-31.2213196838208,-28.5154165681621,-27.0460581521479,-25.8369737611748,-24.9686458081734,-24.5356536119927,-22.8129743588648,-140.251870505136,164.201002526754,117.848341057685,75.7728207032901,30.8628363607403,-11.1217570220357,-49.543146028095,-79.9998689320283,-92.9943886830957
0.395107632093933,-40.6961025631391,-34.4749032253112,-30.4343015365671,-27.6862767499992,-26.208533051226,-25.0904306661454,-24.3103859704581,-23.884151593209,-22.1105425472152,-145.211487905672,157.869259924154,110.223000503098,67.1041211774223,20.8088042545884,-22.4378936023206,-61.2865932318617,-91.7555614431135,-104.716220302699
0.400782778864971,-40.0788362572897,-33.7376236879022,-29.6397269821241,-26.8481923151593,-25.3781927626544,-24.3651191026669,-23.6531369426947,-23.2124757518822,-21.3685042698859,-150.232332347774,151.426110157947,102.455984529426,58.2346046294276,10.4890995731799,-33.9013789920863,-73.0930220779722,-103.666510718108,-116.680877152628
0.406457925636008,-39.4532000011263,-32.9917638551681,-28.837679111009,-26.0029717896368,-24.5590702799305,-23.6587964378673,-22.9928813982999,-22.5229205618614,-20.5929912119318,-155.31944820577,144.863832081166,94.535424758089,49.1440883756899,-0.0927825542667073,-45.4941059159206,-85.0004199097353,-115.800176026841,-128.986602971714
0.412133072407045,-38.8189722800948,-32.237421881665,-28.0284685531852,-25.153039830102,-23.7547161430235,-22.9684415422479,-22.3278834123397,-21.8204786206341,-19.7938182227769,-160.478255279304,138.174062473433,86.4481083785816,39.81356837389,-10.9282933413606,-57.2087136654987,-97.0551059700314,-128.218892671224,-141.722824259042
0.417808219178082,-38.1759584030966,-31.4747776131121,-27.2126949377581,-24.3014051106354,-22.9679581065875,-22.2909851256672,-21.6588779993954,-21.1126165465336,-18.9845369521381,-165.714582565113,131.347735109897,78.1796212915576,30.2261923399902,-22.0054969620589,-69.0498466405549,-109.306569992861,-140.975884211652,-154.964604025658
