"Freq [GHz]","dB(S(1,1)) [] - $eps1='1' $eps2='0'","dB(S(1,1)) [] - $eps1='2' $eps2='0.1'","dB(S(1,1)) [] - $eps1='3' $eps2='0.2'","dB(S(1,1)) [] - $eps1='4' $eps2='0.3'","dB(S(1,1)) [] - $eps1='5' $eps2='0.6'","dB(S(1,1)) [] - $eps1='6' $eps2='0.9'","dB(S(1,1)) [] - $eps1='7' $eps2='1.1'","dB(S(1,1)) [] - $eps1='8' $eps2='1.4'","dB(S(1,1)) [] - $eps1='9' $eps2='1.8'","dB(S(1,1)) [] - $eps1='10' $eps2='2.1'","dB(S(1,1)) [] - $eps1='11' $eps2='2.5'","ang_deg_val(S(1,1)) [] - $eps1='1' $eps2='0'","ang_deg_val(S(1,1)) [] - $eps1='2' $eps2='0.1'","ang_deg_val(S(1,1)) [] - $eps1='3' $eps2='0.2'","ang_deg_val(S(1,1)) [] - $eps1='4' $eps2='0.3'","ang_deg_val(S(1,1)) [] - $eps1='5' $eps2='0.6'","ang_deg_val(S(1,1)) [] - $eps1='6' $eps2='0.9'","ang_deg_val(S(1,1)) [] - $eps1='7' $eps2='1.1'","ang_deg_val(S(1,1)) [] - $eps1='8' $eps2='1.4'","ang_deg_val(S(1,1)) [] - $eps1='9' $eps2='1.8'","ang_deg_val(S(1,1)) [] - $eps1='10' $eps2='2.1'","ang_deg_val(S(1,1)) [] - $eps1='11' $eps2='2.5'"
0.1,-0.0971303612920779,-0.103185954378949,-0.103563488474438,-0.103518289427108,-0.106671842391026,-0.104751901039698,-0.103061890934869,-0.0981521956532076,-0.093911756261837,-0.0927618153603251,-0.0918664628367979,-43.1565798286963,-43.8400182635634,-43.0381144736949,-42.6506537142082,-42.2513425590829,-42.0285051197194,-42.0633545607095,-41.933801452011,-41.7136623617864,-41.5665796998252,-41.5196520106569
0.105675146771037,-0.102156101658248,-0.108550020459082,-0.109103474794393,-0.109142722455574,-0.11267165679038,-0.110885553775962,-0.10916009239373,-0.103921714971498,-0.0992475142011297,-0.0979954048631894,-0.0969827861810561,-45.4819563941394,-46.2006433488197,-45.3737075917299,-44.9750449949284,-44.5631683501373,-44.3342277274034,-44.3744328378123,-44.2420498377329,-44.0131570477504,-43.8609080278888,-43.8107495490104
0.111350293542074,-0.107097799915325,-0.11383396616059,-0.114588423791109,-0.114727641500582,-0.118658231107503,-0.117026007365511,-0.115276424433153,-0.109726427339891,-0.104591952954033,-0.103234382100592,-0.102093827599633,-47.7914466401823,-48.5451300534807,-47.696190634557,-47.2879561741715,-46.8651300434027,-46.6310091381807,-46.6770364167023,-46.5423425012631,-46.3053094325133,-46.1483807227381,-46.0948828309816
0.117025440313112,-0.111954017340501,-0.119037817270532,-0.120019799049139,-0.120275884319403,-0.124636537044192,-0.123179219282659,-0.121417668685317,-0.115565006812367,-0.109952737698227,-0.108486450870529,-0.107206428249358,-50.0847616991582,-50.8732214695532,-50.0053948616943,-49.5892766869485,-49.1571818584587,-48.9188465887523,-48.9711829630957,-48.8347723850917,-48.5901721203197,-48.4290699940774,-48.3721152572893
0.122700587084149,-0.116724020960421,-0.124162511198233,-0.125400095695862,-0.125791214818429,-0.130612935948403,-0.129352696018709,-0.127590599785311,-0.121459705293026,-0.115339043047874,-0.113760951265855,-0.112328894359795,-52.3616560364468,-53.1847086822058,-52.3011935438687,-51.8789349675172,-51.4393151075373,-51.1977732042159,-51.2569464058041,-51.1194615227317,-50.8678356560415,-50.7030861441093,-50.6425471193907
0.128375733855186,-0.121407960297551,-0.129209803920372,-0.130732739713737,-0.131278702438363,-0.136594981639656,-0.135555549732901,-0.133808081909364,-0.127408844374484,-0.120761814831068,-0.119069011991999,-0.11747120924458,-54.6219303029972,-55.479431895936,-54.5835028456489,-54.1569006403031,-53.7115601788976,-53.4678609324411,-53.5343841557684,-53.3964512576622,-53.1384303201884,-52.9705783517239,-52.9063176691913
0.134050880626223,-0.126006463152793,-0.134182442960221,-0.136022256065611,-0.13674447140615,-0.142591774981005,-0.141798603432372,-0.140081389905589,-0.133408679838553,-0.126233910790794,-0.124423627045658,-0.122645150175984,-56.8654283871813,-57.7572811051585,-56.8522830624267,-56.4231858388706,-55.9739883747985,-55.7292216257032,-55.8036489005845,-55.6657986253527,-55.4021281238695,-55.2317375537396,-55.1636072345948
0.13972602739726,-0.130521017914926,-0.139084024148321,-0.141274202358044,-0.142195876108267,-0.148613908018319,-0.148094509721889,-0.146424684545487,-0.139541087202513,-0.131770157265867,-0.129839863471871,-0.127864403717481,-59.0920411847327,-60.0181963430148,-59.1075399397929,-58.6778466431018,-58.2267135963491,-57.9820098508814,-58.0649178199989,-57.9279834262086,-57.6591448399662,-57.4867981430618,-57.4146393876174
0.145401174168297,-0.134953822110656,-0.143919121821572,-0.146495284612904,-0.147641696193128,-0.154673558832554,-0.154457746045539,-0.152852025724257,-0.145651677015999,-0.137387601150878,-0.135334999874606,-0.133144751685376,-61.3017046170211,-62.2621677977088,-61.3493252802544,-60.9209841249828,-60.4698938028641,-60.2264239961169,-60.318429905536,-60.1825876662434,-59.9097421814732,-59.7360402938915,-59.6596825745076
0.151076320939335,-0.139307678805894,-0.148693213101747,-0.151693353747889,-0.153091994269958,-0.160784680021608,-0.160904934400974,-0.15938298212047,-0.151989795300515,-0.143105610657304,-0.140928663220503,-0.138504236380981,-63.4943992211712,-64.4892357259223,-63.5777374586577,-63.1527455809965,-62.7037326996942,-62.4627080881366,-62.5644450955453,-62.4308177722369,-62.1542290488627,-61.9797915641576,-61.8990523476068
0.156751467710372,-0.143586230431518,-0.153412750070695,-0.156877504107849,-0.158558342623473,-0.166963074576605,-0.16745481402018,-0.16603867410834,-0.158447372662429,-0.148946086072135,-0.146643098625084,-0.143963292048382,-65.6701516048362,-66.6994903696548,-65.7929222755655,-65.3733255577124,-64.9284810359615,-64.6911537108355,-64.8032847521638,-64.6724866083964,-64.3929640948264,-64.2184288805556,-64.1331131042891
0.162426614481409,-0.147793777703041,-0.158085192689552,-0.162058106378847,-0.164053879721037,-0.17322653611779,-0.174128531834101,-0.172841241599684,-0.16506535461978,-0.154933632793141,-0.152503266097107,-0.149544988450772,-67.8290320195454,-68.8930717212247,-67.9950734644874,-67.5829670343332,-67.1444383806348,-66.9121014621925,-67.0353087549541,-66.9080196404704,-66.6263571731462,-66.4523808375547,-66.3622804460439
0.168101761252446,-0.151935296341981,-0.162718961881439,-0.167246814336009,-0.169593419280041,-0.179595046995735,-0.180949735692987,-0.179817990861795,-0.171896389569529,-0.16109576592941,-0.158537062221454,-0.155275187941257,-69.9711548168476,-71.070169021332,-70.1844329753879,-69.7819620868624,-69.3519541571346,-69.1259432036964,-69.2609460545314,-69.138015017859,-68.8548715103085,-68.6821295464865,-68.587022718445
0.173776908023483,-0.15601649210912,-0.167323571521778,-0.172456856027987,-0.175193567097215,-0.186090935216291,-0.18794489220989,-0.186998016774421,-0.178923119168782,-0.167463157904422,-0.164775581374333,-0.1611827583223,-72.0966779166788,-73.2310207490582,-72.3612923800278,-71.9706534821042,-71.5514298748238,-71.3331231806872,-71.4806706159474,-71.362707521861,-71.0790264850528,-70.9082130602828,-70.8078634276363
0.179452054794521,-0.160043850079529,-0.171909570919871,-0.177702859151745,-0.180872901245316,-0.192739106098771,-0.195143434528427,-0.194413001827661,-0.186224610632456,-0.174069801838496,-0.171253232029419,-0.167299851143662,-74.2058021037993,-75.3759140635406,-74.5259922774269,-74.1494355805285,-73.7433202346989,-73.5341407966788,-73.6950080077337,-73.5828930014342,-73.2993984475273,-73.1312279539983,-73.0253839109409
0.185127201565558,-0.164024509506044,-0.176488655609729,-0.183001152063365,-0.186652088221673,-0.199567238876746,-0.202578098973429,-0.202099225612121,-0.19385110617563,-0.180953315961303,-0.178008025846949,-0.1736619965538,-76.2987700898668,-77.5051847054092,-76.6789239356024,-76.3187556882369,-75.9281354378627,-75.7295522815959,-75.9045508541132,-75.7991337226001,-75.516625440203,-75.3518322709497,-75.2402256971436
0.190802348336595,-0.167966387515124,-0.181073708140343,-0.188369814568426,-0.192554115616373,-0.206606098094177,-0.210285189206331,-0.210096116462564,-0.201756463376978,-0.18815519054561,-0.185081841356911,-0.180308482428956,-78.3758664847218,-79.6192166082531,-78.8205297763075,-78.4791155709937,-78.1064429554181,-77.9199732760888,-78.1099458702898,-78.0119452504644,-77.7314089220397,-77.570749169576,-77.4530941980451
0.196477495107632,-0.171878185624773,-0.185678920641395,-0.193828864958301,-0.198604469783593,-0.213889810002715,-0.218304944487569,-0.218448472520296,-0.210077886239025,-0.19572107457455,-0.192520639247112,-0.187282561383914,-80.437416926147,-81.7184418845373,-80.9513043277838,-80.6310729369076,-80.2788696508813,-80.1060814021399,-80.3119141953959,-80.2223106392451,-79.9445182588086,-79.7887708610322,-79.6647617245162
0.202152641878669,-0.175769393660281,-0.19031975034397,-0.199400374680164,-0.204831427182186,-0.221456209450502,-0.226681936201269,-0.22720422357486,-0.218836835077374,-0.203701133190024,-0.200374853115692,-0.194631716057199,-82.4837876831261,-83.8033409659259,-83.0717951567435,-82.7752432699859,-82.4461047227648,-82.2886192713447,-82.5112319358803,-82.4309284645421,-82.1567946739182,-82.0067631513273,-81.8760723413344
0.207827788649706,-0.179650335592523,-0.195013140300744,-0.20510869413767,-0.211266306024615,-0.229347228249164,-0.235465477633368,-0.236417738187129,-0.228091398916842,-0.212150446427612,-0.208699715690159,-0.202408065713027,-84.5153854418262,-85.8744426460279,-85.1826047649813,-84.9123020541626,-84.6089017919732,-84.4683974733343,-84.7087578445972,-84.638731299781,-84.3691565646931,-84.225672084042,-84.0879469097892
0.213502935420744,-0.183532189672682,-0.1997776171597,-0.210980695753827,-0.217943772984065,-0.237609346812438,-0.244710168804248,-0.246146995273708,-0.237882128716914,-0.221129522506554,-0.21755582464685,-0.210668766546821,-86.5326569168085,-87.9323243352186,-87.2843913758948,-87.0429869497507,-86.7680824758545,-86.6462987395321,-86.9054134382691,-86.846543589253,-86.5826053380769,-86.446529424075,-86.301389080313
0.219178082191781,-0.187427094359255,-0.204633345408427,-0.217045997406969,-0.224902259265996,-0.246294090167386,-0.254476445123122,-0.256458641968277,-0.248304541362845,-0.230704906993692,-0.227009736860911,-0.219476524868381,-88.5360886051888,-89.9776129051082,-89.3778711010426,-89.1681004232077,-88.9245398230114,-88.8232818003255,-89.1022157141417,-89.0556125300794,-88.798232620271,-88.6704619634861,-88.5174927804054
0.224853228962818,-0.19134814760275,-0.209602381742602,-0.223337277572677,-0.232184351383924,-0.25545858722035,-0.264831266192832,-0.267424482597465,-0.259422210077879,-0.240949960625582,-0.237134840104927,-0.228900304201613,-90.5262069138474,-92.0109851849145,-91.4638203680676,-91.2885130248188,-91.0792419911134,-91.0003862003965,-91.3002633464491,-91.2670135232704,-91.0172282254947,-90.8986997187639,-90.7374505214868
0.230528375733855,-0.195309512448897,-0.214708811076013,-0.229890602291321,-0.239837278324478,-0.26516625645609,-0.275848842384337,-0.279125579565875,-0.271324950960284,-0.251945832941098,-0.248012382677464,-0.239016208864526,-92.5035783616257,-94.0331693331514,-93.5430777740715,-93.4051665782844,-93.2332368813186,-93.1787377746956,-93.5007292231156,-93.4820394967977,-93.2408892588671,-93.1325861924985,-92.9625631147709
0.236203522504892,-0.199326473349119,-0.219978937031721,-0.236745843767193,-0.247913464481822,-0.275487544805987,-0.287611551113779,-0.291649965434228,-0.284088146800038,-0.26378270611535,-0.259732856565938,-0.249908586147873,-94.468809755711,-96.0449457969629,-95.6165474635666,-95.5190780622126,-95.3876570628342,-95.3595547435669,-95.7049215282109,-95.7018966540039,-95.4706305305425,-95.3735897910405,-95.1942505682465
0.24187866927593,-0.203415586618685,-0.225441587526449,-0.243947097274042,-0.256471164830018,-0.286500751617398,-0.300210945827226,-0.30509765965257,-0.297827626667295,-0.276561307073025,-0.272397687696797,-0.261671482863219,-96.4225492241545,-98.047149436797,-97.6852020458461,-97.6313443656489,-97.543725585937,-97.5441545867799,-97.9142342192876,-97.9282591236563,-97.7079953366486,-97.6233156620895,-97.4340644644461
0.247553816046967,-0.207594721686827,-0.231128324883067,-0.251543209325503,-0.265575211306064,-0.298293080826471,-0.313748975114442,-0.319578558219093,-0.312658868944034,-0.290394705439232,-0.286121168883032,-0.274410428312047,-98.3654862059146,-100.040671295964,-99.7500866342868,-99.7431469768301,-99.7027621904538,-99.7339620002935,-100.130179197455,-100.162660130467,-99.9546678439929,-99.8835185078267,-99.6837003712829
0.253228962818004,-0.211883252119982,-0.237073818524143,-0.259588378027143,-0.275297818515475,-0.310961754250748,-0.328339364307337,-0.335216512856064,-0.328706787189504,-0.30541054655769,-0.301032962875632,-0.288244576780599,-100.298353233707,-102.026461236957,-101.812322976457,-101.855757934573,-101.866190585075,-101.930517644912,-102.354403280803,-102.406837725141,-102.212485364285,-102.1561150465,-101.945012138704
0.258904109589041,-0.216302160554974,-0.243316185404391,-0.268142845872187,-0.285719559629795,-0.324615317510081,-0.344109276874258,-0.352149704512116,-0.346122190649964,-0.321753556663193,-0.317280697913794,-0.303309251344487,-102.221926891617,-104.005530721061,-103.873114520676,-103.970546002347,-104.035546770378,-104.135488256751,-104.588684131518,-104.662673450761,-104.483452066208,-104.443197944974,-104.22002578376
0.264579256360078,-0.220874251748025,-0.249897440459158,-0.277273655869344,-0.296930489395654,-0.339375225330016,-0.361201268640141,-0.370535642339185,-0.365076568298675,-0.339588453746378,-0.335033052122272,-0.319758864152684,-104.137029508086,-105.978956389973,-105.933751875057,-106.088984242447,-106.212488108185,-106.350677578699,-106.834966646616,-106.93245763546,-106.769752147454,-106.747049052495,-106.510954111046
0.270254403131115,-0.22562430855712,-0.256863966476784,-0.287055595735001,-0.309031406248128,-0.355377596150803,-0.379775545566366,-0.390549516849698,-0.385746544282599,-0.359103222340013,-0.35448303328801,-0.33777020723639,-106.044531120121,-107.947883956683,-107.995619284197,-108.212658021633,-108.398803870756,-108.578039031587,-109.095345498307,-109.218278487309,-109.073765020058,-109.070154040359,-108.820211615744
0.275929549902153,-0.230579366226192,-0.264267107254227,-0.297572228394715,-0.322135356372858,-0.372775331577,-0.400012680227764,-0.412391409925745,-0.408348622696309,-0.380512748680256,-0.375851613668888,-0.357546029446244,-107.945351925055,-109.913532760377,-110.060201790851,-110.34327434378,-110.596426762446,-110.819689438395,-111.372102104666,-111.522248486421,-111.398080377572,-111.415218191492,-111.150430501684
0.28160469667319,-0.235768916514519,-0.272163804444512,-0.308917127907,-0.336369346090486,-0.39174057090974,-0.422116764972558,-0.436288144814797,-0.433134808712755,-0.404062873532463,-0.39939160678064,-0.379318981188303,-109.840464620071,-111.877201175688,-112.129093236342,-112.482672266452,-112.807446228725,-113.077924202507,-113.66771392202,-113.847551953643,-113.745515980397,-113.785184817051,-113.504477232345
0.287279843444227,-0.241225267787165,-0.280617348845257,-0.321195273270072,-0.351876359792173,-0.412467565822503,-0.446319149893134,-0.46249780242427,-0.460388961601828,-0.430034919090276,-0.425392024109402,-0.403355844841664,-111.730898113016,-113.840272535859,-114.204005509589,-114.632834743082,-115.034123191668,-115.355234256756,-115.98487336093,-116.196850031139,-116.119137440188,-116.183257325024,-115.885472752045
0.292954990215264,-0.246983827763544,-0.289698279527133,-0.334524699026916,-0.368817687476233,-0.435176090473781,-0.472882834102055,-0.491315921495515,-0.490408627548315,-0.458750827634498,-0.454183033634444,-0.429962250780858,-113.617740730299,-115.804222041587,-116.286778860128,-116.795901747443,-117.278906327027,-117.6543243549,-118.326508510527,-118.573329584524,-118.52228156268,-118.612926501506,-118.296815517322
0.298630136986301,-0.253083537466041,-0.299485390048837,-0.34903839968553,-0.387375683508102,-0.46011545224914,-0.502107626985868,-0.52307869186151,-0.523580192120053,-0.490579173033476,-0.486141955393145,-0.459487981232874,-115.502144807251,-117.770624568218,-118.379393504705,-118.974185194489,-119.544450494193,-119.978133180557,-120.695792452427,-120.980216132213,-120.958584591188,-121.078004304427,-120.742210618316
0.304305283757339,-0.259567298978863,-0.310066892508353,-0.364886561734554,-0.407756950571181,-0.48756921402122,-0.534336203290215,-0.55817339385291,-0.560306025770618,-0.52594226837205,-0.52170051508048,-0.492333291979218,-117.385331139819,-119.741163601671,-120.483982580719,-121.170185661845,-121.833636947383,-122.329855217959,-123.096187768888,-123.421603197959,-123.432015981935,-123.582665283448,-123.22570619782
0.309980430528376,-0.266482513511517,-0.321541816601456,-0.382239171429061,-0.430196147314249,-0.517860818355616,-0.569961264140895,-0.597043078881987,-0.601082746946475,-0.565324885470393,-0.561354107659293,-0.528956556787313,-119.268594809381,-121.717641122818,-122.602846777376,-123.38661105151,-124.14959568518,-124.712964349136,-125.531451761648,-125.901277475836,-125.946918751946,-126.131496155142,-125.751737717638
0.315655577299413,-0.273881651673207,-0.33402158432552,-0.40128903751041,-0.454960424529057,-0.55136021089502,-0.609433907157948,-0.6401982592344,-0.646457864678341,-0.609285055492996,-0.60567360294591,-0.569884023545602,-121.153311134656,-123.701989090133,-124.738470900047,-125.626397605555,-126.495730004353,-127.131239395593,-128.005674276027,-128.423765595418,-128.508056438628,-128.729553529913,-128.325182990699
0.32133072407045,-0.281822959741849,-0.347631890090549,-0.422255403992324,-0.48235469488847,-0.588491712991381,-0.65327351318492,-0.688227223041188,-0.697067864722271,-0.658467555715154,-0.655320524288809,-0.615722302411285,-123.040942977989,-125.696282182219,-126.893542043929,-127.892733286544,-128.875743212936,-129.588791685366,-130.52330832341,-130.993796764158,-131.120666990208,-131.382428276651,-130.951426409023
0.327005870841487,-0.290371261495041,-0.362514881546342,-0.445388152471976,-0.512727869769161,-0.629743357668002,-0.702079438172029,-0.741809521486012,-0.753659820703118,-0.713620808593193,-0.711066252078166,-0.667174458147233,-124.933048668711,-127.702752284601,-129.070970180854,-130.189083780107,-131.293667609008,-132.090094379472,-133.089205858483,-133.616716378176,-133.790521857121,-134.096314378238,-133.636432493943
0.332681017612524,-0.299598844361752,-0.378831729396403,-0.470972761976672,-0.546480280626038,-0.675677980758742,-0.7565447735149,-0.801731620090908,-0.817077068541758,-0.775617914077482,-0.773815993076236,-0.72506072266352,-126.831291027851,-129.723804700014,-131.273911154988,-132.519221431959,-133.753895645395,-134.640013919896,-135.708645052577,-136.298475259806,-136.523989059704,-136.878079133263,-136.386826056159
0.338356164383562,-0.309586561918606,-0.39676564350301,-0.499336204541295,-0.584072499068937,-0.726946389920113,-0.817472730395006,-0.868906405558328,-0.888335688927936,-0.845482615124806,-0.844638240402179,-0.790344645708576,-128.737447642229,-131.762036595825,-133.505792115236,-134.887257175879,-136.261213024373,-137.243843005343,-138.387379957073,-139.045152552354,-139.328096892795,-139.735329910212,-139.209975784182
0.344031311154599,-0.320425050111004,-0.416525424502965,-0.530853898722642,-0.62603586991654,-0.784303043182311,-0.88579607144481,-0.944395975798808,-0.968603621266129,-0.924420941598628,-0.924800164284483,-0.864165653336834,-130.653422542295,-133.820257602691,-135.770340001676,-137.297675536822,-138.820833483841,-139.907335117146,-141.131680776437,-141.863868023809,-142.210595110568,-142.676473158828,-142.114075829299
