"Freq [GHz]","dB(S(2,1)) [] - $eps1='1' $eps2='0'","dB(S(2,1)) [] - $eps1='2' $eps2='0.1'","dB(S(2,1)) [] - $eps1='3' $eps2='0.2'","dB(S(2,1)) [] - $eps1='4' $eps2='0.3'","dB(S(2,1)) [] - $eps1='5' $eps2='0.6'","dB(S(2,1)) [] - $eps1='6' $eps2='0.9'","dB(S(2,1)) [] - $eps1='7' $eps2='1.1'","dB(S(2,1)) [] - $eps1='8' $eps2='1.4'","dB(S(2,1)) [] - $eps1='9' $eps2='1.8'","dB(S(2,1)) [] - $eps1='10' $eps2='2.1'","dB(S(2,1)) [] - $eps1='11' $eps2='2.5'","dB(S(2,1)) [] - $eps1='12' $eps2='2.8'","dB(S(2,1)) [] - $eps1='13' $eps2='3.1'","arg(S(2,1)) [deg] - $eps1='1' $eps2='0'","arg(S(2,1)) [deg] - $eps1='2' $eps2='0.1'","arg(S(2,1)) [deg] - $eps1='3' $eps2='0.2'","arg(S(2,1)) [deg] - $eps1='4' $eps2='0.3'","arg(S(2,1)) [deg] - $eps1='5' $eps2='0.6'","arg(S(2,1)) [deg] - $eps1='6' $eps2='0.9'","arg(S(2,1)) [deg] - $eps1='7' $eps2='1.1'","arg(S(2,1)) [deg] - $eps1='8' $eps2='1.4'","arg(S(2,1)) [deg] - $eps1='9' $eps2='1.8'","arg(S(2,1)) [deg] - $eps1='10' $eps2='2.1'","arg(S(2,1)) [deg] - $eps1='11' $eps2='2.5'","arg(S(2,1)) [deg] - $eps1='12' $eps2='2.8'","arg(S(2,1)) [deg] - $eps1='13' $eps2='3.1'"
0.1,-70.6886416877453,-67.2040931357038,-65.7138285424823,-64.7150994103652,-64.2898413251079,-63.4371372939522,-63.2417176801159,-62.9818334650532,-63.0610984551215,-62.950310689385,-62.8963402425801,-62.8955954172594,-62.8534733287334,105.958609948941,97.5328550877877,95.161866177468,93.6113166304763,92.2642407156097,91.7264455357835,90.7576661500886,90.0567337697053,90.0264884541503,89.747220719887,90.1576723207043,89.8356310518393,89.5358168670506
0.10782,-69.6845041049827,-66.2492683492431,-64.7507755813396,-63.7383660345827,-63.306406536784,-62.4443322656059,-62.2435840470652,-61.9738585849778,-62.0407914973778,-61.927413451263,-61.8700810711253,-61.8694378691742,-61.8281443465476,105.792867089331,97.0376050435334,94.3158236594532,92.4079126025999,90.662148273018,89.8228789260314,88.5702928875669,87.6523804959526,87.5876611472586,87.2257557354471,87.726049677095,87.3368158347327,86.9909846063578
0.11564,-68.7285046771778,-65.3400708749237,-63.8362007464651,-62.8139267307717,-62.380267407219,-61.5134556975527,-61.3110512322295,-61.0345087124414,-61.0890844041762,-60.9739401007034,-60.9120538610994,-60.9122274097554,-60.872177604776,105.459816534003,96.3912508849139,93.317391915243,91.0508195494565,88.9166760951933,87.7844529856493,86.2564008599923,85.1199129416667,85.0097896316346,84.5684115094287,85.1519032087986,84.6985644316322,84.3093996890828
0.12346,-67.8160671792249,-64.47205766477,-62.965421341673,-61.9367295986585,-61.5056345528699,-60.6379637536651,-60.4369568802071,-60.156332105132,-60.1987530422785,-60.0824806745791,-60.0151125714321,-60.0166680141352,-59.9781705320306,104.973782519172,95.6052716444733,92.1801589653088,89.5563690958968,87.0464775094961,85.6324158715667,83.8390238708712,82.4851640404335,82.319571739687,81.8020664503306,82.4620056861458,81.9477780847925,81.5179832805114
0.13128,-66.9433587296292,-63.6415516518453,-62.1345161900305,-61.1024905732151,-60.6775638916299,-59.8122424386665,-59.6151410115855,-59.3328595372436,-59.3635051344039,-59.2465876263906,-59.1730306056779,-59.1764071270848,-59.1396815466747,104.34822388573,94.6907555157875,90.9168542032805,87.9393659732075,85.067784251491,83.3845422716053,81.3369167489036,79.7690166411809,79.5388664253442,78.9485884675268,79.6783481846708,79.1064382452103,78.6386473883189
0.1391,-66.1071036282732,-62.8454427155888,-61.3401364339791,-60.3075153750975,-59.8917787068148,-59.0314304802935,-58.8402687167149,-58.5584456093181,-58.5778277179976,-58.460619357123,-58.3803493093322,-58.3858813595888,-58.3510736064519,103.595607899389,93.6582183710729,89.5392436651091,86.2131087907988,82.9946590051368,81.0556837847772,78.7653358047161,76.9882811995699,76.6855007667855,76.0257023811829,76.8189263115034,76.1924405879706,75.6891609326046
0.14692,-65.304456517048,-62.081051821016,-60.5793757397315,-59.5485758922855,-59.1445419147537,-58.2912866040375,-58.1076928339622,-57.828143914749,-57.836868720349,-57.7196178763576,-57.6322607431282,-57.640196330518,-57.6073919387234,102.727365202162,92.5174995023491,88.058096056789,84.3894646525024,80.8392486320909,78.6582430618232,76.1366851165262,74.1564380247957,73.7739620864466,73.0477237291591,73.8984169104397,73.2203050606489,72.6838823866186
0.15474,-64.5329138177808,-61.346036376531,-59.8496790754887,-58.8228217550364,-58.432561386206,-57.5880873011399,-57.4133451294106,-57.1376060656611,-57.1363421906657,-57.0192104537339,-56.9245141325038,-56.9350304045384,-56.904265803616,101.75389859998,91.2777130146105,86.4831956509668,82.4789727479697,78.6120232795122,76.202575141966,73.4610447662861,71.2842542202785,70.8159805555665,70.0261700727767,70.9287493469211,70.2017704645777,69.6343700583875
0.16256,-63.7902500762152,-60.6383228190931,-59.1487768591277,-58.1277151145533,-57.7529177697468,-56.9185462545108,-56.75364852088,-56.4829983895042,-56.4724507746426,-56.355528919574,-56.2533394892384,-56.2665558612622,-56.2378278916167,100.684625148827,89.9472377399817,84.8233841327504,80.4909602894805,76.3219943110314,73.6973234839534,70.7465995287572,68.3802909307295,67.8210142899576,66.9702655613681,67.9195822807083,67.1462872753007,66.5498857640153
0.17038,-63.0744710668188,-59.9560576086766,-58.4746363093629,-57.4609812900639,-57.1030081057116,-56.2797497150912,-56.1254454190874,-55.8609323241096,-55.8418212355593,-55.7251424854538,-55.6153842237282,-55.6313733943906,-55.6046472847734,99.5280377118038,88.5337330593069,83.0866193762188,78.4336608361494,73.9769085678824,71.1496998548665,67.9999858163861,65.4513178725219,64.7966506050342,63.8873553853745,64.8786990089291,64.061424043987,63.4378086579168
0.1782,-62.3837781874487,-59.297570688362,-57.8254244949428,-56.8205703654598,-56.4805008418989,-55.6691038551016,-55.5259385719967,-55.2684056176318,-55.2414501864116,-55.1250011750353,-55.0076598448781,-55.0264569815156,-55.0016729866571,98.2917759088677,87.0441708375812,81.2800422705345,76.314328527407,71.5834189984044,68.5657166596533,65.2265722017936,62.5026504626664,61.7489367181809,60.7832451573328,61.812333959552,60.9532012976262,60.3039740358634
0.18602,-61.7165408129402,-58.6613476830623,-57.199479669451,-56.2046267031172,-55.8832993093012,-55.084291417165,-54.95264186669,-54.7027524144454,-54.6686580370451,-54.5523878532228,-54.4274967832793,-54.4491071664932,-54.4261860814853,96.9827003401942,85.4848769579138,79.4100462844484,74.1393450937539,69.1472331580494,65.950379817198,62.4306865200116,59.5384236927568,58.6826519017215,57.6624786975944,58.7254420071577,57.8263657713422,57.1529507858807
0.19384,-61.0712742564515,-58.0460082181916,-56.5952885133064,-55.6114641937042,-55.3095116274466,-54.523235579521,-54.4033390754842,-54.1616005948026,-54.1210495853556,-54.0048772070762,-53.8725057582399,-53.896911117487,-53.8757588230837,95.6069657872141,83.8615774917409,77.4823460200145,71.9143177723957,66.6732416489065,63.3078487027155,59.6157999180526,56.5618141183813,55.6015310899689,54.5285650507501,55.6219202727945,54.684615271162,53.9882681473881
0.20166,-60.446621860581,-57.4502886757649,-56.0114676980626,-55.0395458588801,-54.7574255936383,-53.9840696437737,-53.8760491030782,-53.6428351997171,-53.596480165908,-53.4803005646953,-53.3405445964405,-53.3677083428134,-53.348219546759,94.1700910420555,82.1794464250968,75.5020425977455,69.6441677497472,64.1656287586999,60.6415691664571,56.7846765153947,53.5752197806611,52.508448748763,51.3841642815107,52.504790910445,51.5307832451323,50.8126013322294
0.20948,-59.8413401598074,-56.8730281986545,-55.4467487095546,-54.4874667957607,-54.2254875228744,-53.4651113776571,-53.3689965188525,-53.1445669870685,-53.093026413219,-52.976715556967,-52.8296895795471,-52.8595611291954,-52.841622425419,92.6770239762872,80.4431527663836,73.4736847345736,67.3332092584928,61.6279676219025,57.9543841913249,53.9394953150743,50.5804060874997,49.4055700097043,48.2312394943219,49.3763517385857,48.3669903281843,47.6279234571777
0.2173,-59.254286399669,-56.3131571209579,-54.8999651331837,-53.9539397152242,-53.7122842451788,-52.9648411723363,-52.880586457871,-52.6651053041513,-52.6089609305172,-52.4923798710271,-52.338210611436,-52.3707289399636,-52.3542212991617,91.1322011922929,78.6569056881873,71.4013248219569,64.9852197210126,59.0633019029201,55.2486262110857,51.0819498263957,47.5786240377815,46.2944749843561,45.0711812755013,46.2383004282211,45.1947687876222,44.4356299347742
0.22512,-58.6844079024451,-55.7696872672051,-54.3700419046877,-53.4377825970639,-53.2165276884883,-52.4818833478131,-52.4093831598516,-52.2029346499817,-52.142730276452,-52.0257284949883,-51.8645496395119,-51.8996461948108,-51.8844469860536,89.5396021236924,76.8244969787888,69.2885700414212,62.6035018573009,56.4742159533115,52.5261943038463,48.2133297341726,44.5707061578211,43.1762610681185,41.9049097086384,43.0918370185495,42.0151648292148,41.2366404544341
0.23294,-58.1307329059767,-55.2417036977432,-53.8559860759453,-52.937908022278,-52.7370415746008,-52.0149900534829,-51.9540915243978,-51.7566943717603,-51.6929357841219,-51.5753539092752,-51.4073018251388,-51.4449029177336,-51.4308875394639,87.9027977013625,74.9493403720249,67.1386283952996,60.190938302024,53.8628950381095,49.7886188206808,45.3345879515017,41.5571443319047,40.0516271701019,38.7329579119518,39.9377484577242,38.8288226916573,38.0314825472525
0.24076,-57.5923626064843,-54.7283576089229,-53.3568788428005,-52.4533139166539,-52.2727498900154,-51.5630273625824,-51.5135412266491,-51.3251610627289,-51.2583168170732,-51.1399888504602,-50.9651991133519,-51.0052278657021,-50.9922710513667,86.2249938783418,73.0345076225109,64.9543500921019,57.7500397019488,51.2311771166918,47.0371157047087,42.4463959376123,38.5381530811045,36.9209431233683,35.555540662422,36.7764785252175,35.6360538877148,34.8203601442326
0.24858,-57.0684641923951,-54.2288601694983,-52.871868600088,-51.9830754580234,-51.8226668319304,-51.1249631982022,-51.0866729618288,-50.9072332474871,-50.8377361224287,-50.7184912434864,-50.5370958354069,-50.5794737768375,-50.567450637627,84.5090704001258,71.082761369996,62.7382645604021,55.2829869414265,48.5805973696111,44.2726321898151,39.5491893214468,35.5137209187878,33.7843068862793,32.3726106031259,33.6081855463479,32.4368941530272,31.6032098200071
0.2564,-56.5582647090919,-53.7424771163023,-52.4001648412881,-51.5263379618752,-51.3858880128832,-50.6998568122805,-50.672526518166,-50.5019180633521,-50.4301669915639,-50.3098310347592,-50.1219560865763,-50.1666044491494,-50.1553913001314,82.7576152286114,69.0965848574294,60.4926134230742,52.7916682070161,45.9124265611143,41.4958853307645,36.6432057058529,32.4836521563029,30.6415916801375,29.1839044050327,30.432790096301,29.2311502897506,28.3797468713569
0.26422,-56.0610456421499,-53.2685240019492,-51.9410327883137,-51.0823106116996,-50.9615827331043,-50.286849597596,-50.2702303994511,-50.1083196452632,-50.0346820066314,-49.9130786628876,-49.7188426450759,-49.7656834246252,-49.755158438312,80.9729551062575,67.0782087951256,58.2193799133605,50.2777115804382,43.2277041196034,38.7073946092873,33.7285160584074,29.4476009208656,27.4924849135856,25.9889806456255,27.2500144438049,26.0184387682661,25.1495031789061
0.27204,-55.5761380915473,-52.8063619707074,-51.4937886260594,-50.650260893613,-50.5489871614487,-49.8851570208683,-49.8789927610914,-49.7256289827917,-49.6504431413955,-49.527394949794,-49.3269072250049,-49.3758640443388,-49.3659077599063,79.1571825718363,65.0296354567441,55.9203150004759,47.7425135980678,40.5272666731574,35.9075094914475,30.8050507526405,26.4050988147951,24.3365202123496,22.7872508605657,24.0594151258873,22.7982174085193,21.9118581296666
0.27986,-55.1029184806758,-52.3553940077002,-51.0577952649932,-50.2295096574213,-50.1473983120437,-49.4940615437011,-49.4980934907504,-49.3531150582518,-49.2766930680886,-49.1520222321472,-48.9453818999293,-48.9963807230393,-48.9868764469814,77.3121799079085,62.9526603665385,53.5969606195844,45.1872644088428,37.8117727545369,33.096432873773,27.872621311431,23.3555774813855,21.1731038995672,19.5780050235607,20.860409848059,19.5698114734352,18.6660640208219
0.28768,-54.6408047171181,-51.9150615785402,-50.632458562902,-49.8194267073232,-49.7561687008391,-49.1129063723154,-49.1268772605269,-48.9901170833549,-48.9127475009131,-48.7862765751715,-48.5735715508398,-48.6265412694573,-48.617375384947,75.4396403331703,60.8488917038624,51.250670360961,42.6129698784061,35.0817241867828,30.2742409512331,24.9309385166651,20.2983869384247,18.0015367856963,16.3604324294421,17.6522997038281,16.3324350469343,15.4112667399497
0.2955,-54.1892527493251,-51.4848416173668,-50.2172239329351,-49.4194268611506,-49.374701592953,-48.7410899431287,-48.7647474238731,-48.6360377012458,-48.5579884560041,-48.4295409270195,-48.2108472094747,-48.2657201356888,-48.2567823469781,73.5410867426593,58.7197676903455,48.8826278092284,40.020471040436,32.3374845904169,27.4409001666805,21.9796275487439,17.2328105435203,14.8210321458354,13.1336387543631,14.4342874758938,13.0852085584173,12.1465226767928
0.30332,-53.7477534784018,-51.0642438187894,-49.8115733080959,-49.0289664183388,-49.0024467706914,-48.3780610377926,-48.4111606460006,-48.2903370195206,-48.2118583124967,-48.0812591085906,-47.8566401888337,-47.9133524795043,-47.9045360031967,71.6178883338656,56.5665721742041,46.4938629088982,37.4104612556472,29.5792954747964,24.5962816414857,19.0182406509663,14.1580771522048,11.6307305138239,9.89666004533523,11.2054926853152,9.82717311988844,8.87081245154321
0.31114,-53.3158299747391,-50.6528081946694,-49.4150224016771,-48.6475399858676,-48.6388967568283,-48.0233144539297,-48.0656221695517,-47.9525273747842,-47.8738545823802,-47.740930529052,-47.5104369174183,-47.5689289416486,-47.5601306636761,69.6712753262956,54.3904485677761,44.0852664972726,34.7835013210965,26.8072902129766,21.7401735061058,16.046267738277,11.0733710415237,8.42971188341041,6.6484741126623,7.96496400438549,6.55730221924273,5.58305206580921
0.31896,-52.8930349701184,-50.2501028677872,-49.0271182423353,-48.2746776265118,-48.2835834368478,-47.6763871585962,-47.727681639479,-47.6221687326054,-47.5435253019197,-47.4081055465874,-47.1717743807685,-47.2319910562051,-47.2231116616438,67.7023520280538,52.192412346742,41.6576032729909,32.1400328434967,24.0215062013997,18.8722914286304,13.063145311001,7.97783998223347,5.21700573634586,3.3880098386816,4.71168938370457,3.27451121365789,2.28210187890451
0.32678,-52.4789485907592,-49.8557220709861,-48.647436942905,-47.9099422810184,-47.9360750322432,-47.3368548663926,-47.3969294052525,-47.2988646429413,-47.2204649724096,-47.0823813910811,-46.8402361114127,-46.9021272171624,-46.8930713070301,65.712108427685,49.9733622197058,39.2115233327391,29.4803900144118,21.2218954252582,15.9922876235541,10.0682638820471,4.87060178825971,1.99159927427373,0.114154708781523,1.44460433690084,-0.0223350165054466,-1.03322621008413
0.3346,-52.0731763108259,-49.4692843391789,-48.2755816859521,-47.5529274492316,-47.5959733917734,-47.0043289967035,-47.0729932621916,-46.9822586893795,-46.904310994087,-46.7633985984857,-46.5154486673758,-46.5789691512869,-46.5696453516184,63.7014305246801,47.7340901905598,36.7475725015969,26.8048100709459,18.4083337049658,13.0997585900901,7.06097429675199,1.75074968602873,-1.24755576363445,-3.17423901799971,-1.83740127730555,-3.33441584404055,-4.36416298805188
0.34242,-51.6753470925635,-49.0904308602026,-47.9111808923076,-47.2032550879282,-47.2629115559163,-46.6784539579407,-46.7555355590549,-46.6720313645093,-46.5947405258233,-46.4508378839353,-46.1970785375121,-46.2621888246286,-46.2525098992422,61.6711094909891,45.4752905299394,34.2662015114702,24.1134425169997,15.580628733821,10.1942517200184,4.04059297880814,-1.38264335128737,-4.50153756596578,-6.47834936473713,-5.13547779691206,-6.66294999717627,-7.71197742215915
0.35024,-51.2851117056378,-48.7188239815362,-47.55388656596,-46.8605737134823,-46.9365515736937,-46.3589047286236,-46.4442506433771,-46.3678973285189,-46.2914677405229,-46.1444174200709,-45.8848294369528,-45.951495753687,-45.9413787242838,59.6218498642621,43.1975678775725,31.7677742567967,21.4063573284956,12.7385271040729,7.27527098597278,1.00640639788016,-4.53052104520928,-7.77144961159162,-9.79938057665408,-8.45081132455038,-10.0091916211545,-11.0779731039095
0.35806,-50.9021411993084,-48.3541458482426,-47.2033727869508,-46.5245566818985,-46.6165825393173,-46.0453846999208,-46.1388625989642,-46.0696030036306,-45.9942414185365,-45.8438904670007,-45.5784399500253,-45.6466346685361,-45.6360009490577,57.5542768549985,40.9014445002512,29.2525751577094,18.6835522079711,9.88172046381972,4.34228183368437,-2.04232519468453,-7.69384090351258,-11.0584169029515,-13.1385598811073,-11.7846201647321,-13.3744272187754,-14.4634855359259
0.36588,-50.5261255109699,-47.9960971625315,-46.8593343412957,-46.1949006316801,-46.3027188276182,-45.7376237517554,-45.8391232476623,-45.7769244670917,-45.7028428550455,-45.5490433252026,-45.2776814850683,-45.3473835001345,-45.3361590503691,55.4689428548026,38.5873668267728,26.7208157480245,15.944959034933,7.00985086912582,1.39471539102822,-5.10636457094758,-10.8735718416385,-14.3635828038558,-16.4971348209692,-15.1381519831843,-16.7599732560369,-17.8698800669051
0.3737,-50.1567722047097,-47.6443960529382,-46.5214854759698,-45.8713240730102,-45.9946985118266,-45.4353765368358,-45.5448103816764,-45.4896656088867,-45.4170840430932,-45.2596935751606,-44.9823565120291,-45.0535516581403,-45.0416671619255,53.3663332865708,36.2557113286322,24.1726405987115,13.1904495898461,4.12251551277102,-1.56802791985769,-8.18649485360497,-14.0706922101374,-17.6881064172844,-19.8763711003607,-18.5126815534987,-20.1671743402175,-21.2985503632345
0.38152,-49.7938053202952,-47.298777044428,-46.1895587666089,-45.5535661097361,-45.6922819395547,-45.1384209547222,-45.2557262084048,-45.2076565304952,-45.1368061109921,-44.9756885804412,-44.6922970603139,-44.7649785740685,-44.7523696473135,51.2468718311798,33.9067898417683,21.6081326370566,10.4198406523696,1.21927082495064,-4.54657522694624,-11.2835172011578,-17.2861881210363,-21.033160345113,-23.277550773966,-21.9095089425249,-23.5974018370438,-24.7509173074244
0.38934,-49.4369643247636,-46.9589901149213,-45.8633040843552,-45.241385281938,-45.3952504581239,-44.8465567925339,-44.9716959811505,-44.9307521524186,-44.8618779858724,-44.6969042268585,-44.4073634496167,-44.481532489713,-44.4681399206224,49.1109251174147,31.5408543294734,19.0273179002295,7.6328985252776,-1.70036389637105,-7.54157851342802,-14.3982488499572,-20.5210520556488,-24.3999287665544,-26.7019707439505,-25.3299580968233,-27.0520528370193,-28.2284282354172
0.39716,-49.0860031571606,-46.6247998380456,-45.542487659172,-44.9345585177397,-45.1034052726491,-44.559604520195,-44.6925667999248,-44.6588310174798,-44.5921952641701,-44.423243879306,-44.1274432374308,-44.2031094665943,-44.1888794965382,46.9588069420573,29.1581012311349,16.4301698501439,4.82934307030065,-4.63690330585997,-10.5537122498796,-17.5315214048204,-23.776281610892,-27.7896057513171,-30.1509414357,-28.7753757104545,-30.5325494153794,-31.7325564186279
0.40498,-48.7406893567594,-46.2959845983715,-45.2268912244711,-44.6328801877902,-44.8165664247777,-44.277404224083,-44.4182065663099,-44.3917942639946,-44.3276792736,-44.154637539154,-43.8524503684121,-43.9296326080795,-43.9145172531148,44.7907820583059,26.7586753670993,13.8166132210272,2.00885131274175,-7.59089321499247,-13.5836713319462,-20.6841793415944,-27.0528784036469,-31.2033937026106,-33.6257856034067,-32.2471302812866,-34.0403380468058,-35.264800728656
