Freq [GHz],"dB(S(2,1)) [] - $eps1='1' $eps2='0'","dB(S(2,1)) [] - $eps1='2' $eps2='0.1'","dB(S(2,1)) [] - $eps1='3' $eps2='0.2'","dB(S(2,1)) [] - $eps1='4' $eps2='0.3'","dB(S(2,1)) [] - $eps1='5' $eps2='0.6'","dB(S(2,1)) [] - $eps1='6' $eps2='0.9'","dB(S(2,1)) [] - $eps1='7' $eps2='1.1'","dB(S(2,1)) [] - $eps1='8' $eps2='1.4'","dB(S(2,1)) [] - $eps1='9' $eps2='1.8'","dB(S(2,1)) [] - $eps1='10' $eps2='2.1'","dB(S(2,1)) [] - $eps1='11' $eps2='2.5'","dB(S(2,1)) [] - $eps1='12' $eps2='2.8'","dB(S(2,1)) [] - $eps1='13' $eps2='3.1'","arg(S(2,1)) [deg] - $eps1='1' $eps2='0'","arg(S(2,1)) [deg] - $eps1='2' $eps2='0.1'","arg(S(2,1)) [deg] - $eps1='3' $eps2='0.2'","arg(S(2,1)) [deg] - $eps1='4' $eps2='0.3'","arg(S(2,1)) [deg] - $eps1='5' $eps2='0.6'","arg(S(2,1)) [deg] - $eps1='6' $eps2='0.9'","arg(S(2,1)) [deg] - $eps1='7' $eps2='1.1'","arg(S(2,1)) [deg] - $eps1='8' $eps2='1.4'","arg(S(2,1)) [deg] - $eps1='9' $eps2='1.8'","arg(S(2,1)) [deg] - $eps1='10' $eps2='2.1'","arg(S(2,1)) [deg] - $eps1='11' $eps2='2.5'","arg(S(2,1)) [deg] - $eps1='12' $eps2='2.8'","arg(S(2,1)) [deg] - $eps1='13' $eps2='3.1'"
0.1,-0.217463808121143,-0.264373741391527,-0.300007029326578,-0.329749562320088,-0.392671142130092,-0.471574425635442,-0.439294395321536,-0.436395199819355,-0.406438881016167,-0.413602156968227,-0.397028897170195,-0.396778059100315,-0.402471621318899,-48.0540615664282,-49.5486196099659,-50.403222703488,-51.3407120981334,-52.6004262470821,-55.2800224353067,-55.0547806161101,-55.2081537128179,-54.9770654206159,-55.4534674973243,-55.7118825262031,-55.2384942993723,-55.443627533653
0.105675146771037,-0.230493327175731,-0.279457306529274,-0.316637645113021,-0.34766302875511,-0.413711585729146,-0.49741951252061,-0.464056465892834,-0.460888090393559,-0.428010372173176,-0.435254621220166,-0.417451876136886,-0.417117045566451,-0.423016554761096,-50.7148226002078,-52.2789890030985,-53.1762880712506,-54.159894458633,-55.4775880237335,-58.2906252765445,-58.0657350481521,-58.2469953168249,-58.0104998790599,-58.5157562171356,-58.7828259941198,-58.2861337267567,-58.5027405146671
0.111350293542074,-0.243702855878788,-0.294675153900155,-0.333373992426015,-0.365665889272053,-0.4348481424636,-0.523462288664424,-0.489073856164762,-0.485748557754935,-0.449818075997312,-0.457151565508556,-0.43807257724989,-0.437619945219843,-0.443726264796333,-53.3724781978694,-55.0056101981722,-55.946062267821,-56.9758287366014,-58.3516526477591,-61.2977811167817,-61.0739143782393,-61.285905884126,-61.0451683099946,-61.5798747779941,-61.8541666039319,-61.3349702506345,-61.5632678827688
0.117025440313112,-0.257133709296854,-0.310074787531135,-0.350270001532144,-0.38381801148432,-0.456152355799901,-0.549787017522677,-0.514423541421162,-0.511062390126314,-0.47195404288393,-0.479386506451596,-0.458976736801216,-0.458377473955259,-0.464693243745449,-56.0270386657419,-57.7285236786987,-58.7126463816905,-59.788650882259,-61.2228130471725,-64.3017275179447,-64.0795780050015,-64.325182525632,-64.081420624618,-64.6461983007007,-64.9262182109312,-64.3853628910011,-64.6255812654764
0.122700587084149,-0.270822776602503,-0.325698338699468,-0.367373481399817,-0.402172464828189,-0.477687666243311,-0.576467913610477,-0.54017368845406,-0.536904961735495,-0.494499724229071,-0.502041933726045,-0.480239363589642,-0.479469606863173,-0.485999002176654,-58.6784870487434,-60.4477397235487,-61.4761073372399,-62.5984615651508,-64.0912252826214,-67.3026740125302,-67.0829631791707,-67.3651035897252,-67.119580914109,-67.7150809497483,-67.9992816422232,-67.4376476050936,-67.6900293000524
0.128375733855186,-0.284802947742771,-0.341583106852115,-0.384726759552428,-0.420776271547232,-0.499510454314195,-0.603570772736759,-0.566385103795989,-0.563342972455406,-0.517527542537273,-0.525190998982633,-0.501926437915349,-0.500967148459941,-0.507715668898169,-61.3267882541786,-63.1632491967167,-64.2364903801196,-65.4053395763597,-66.9570237410769,-70.3008191792648,-70.0843005622166,-70.4059451852719,-70.1599648984674,-70.786873437137,-71.0736610313298,-70.4921545571326,-70.756955252259
0.134050880626223,-0.299103566877795,-0.357762124751175,-0.402367341572373,-0.439671171765095,-0.521671051066561,-0.631154442143082,-0.593112535495497,-0.590435974203675,-0.541102295810252,-0.548898992754918,-0.524096385850569,-0.522933131455701,-0.529907401169438,-63.9718957726222,-65.875031794663,-66.9938282821977,-68.2093521042583,-69.8203326818799,-73.2963636457141,-73.0838260559301,-73.4479936043884,-73.2028933751592,-73.8619362104695,-74.1496761680906,-73.5492214394183,-73.8267105371046
0.13972602739726,-0.313750876779335,-0.374264706092608,-0.420328548689193,-0.458894350550757,-0.544214659787325,-0.659272108148671,-0.620405808224848,-0.618237690459253,-0.565282370186177,-0.573224599759285,-0.546801323307363,-0.545424007221734,-0.552631601008697,-66.6137567856641,-68.5830622738511,-69.7481485653758,-71.0105626385982,-72.6812752182758,-76.2895198402111,-76.0817898833207,-76.4915550095964,-76.2487025410154,-76.9406498971424,-77.2276722036488,-76.6092038394383,-76.89966517627
0.145401174168297,-0.328768427836648,-0.391116957982469,-0.438640103345775,-0.478479102275674,-0.56718219349687,-0.687972417596584,-0.64831080239283,-0.646797131242299,-0.590120764909014,-0.598220940615079,-0.570088092252293,-0.56849064286119,-0.575939895604971,-69.25231631062,-71.2873153786199,-72.4994791464895,-73.8090370953389,-75.5399801202649,-79.2805196376173,-79.078463821953,-79.5369632441532,-79.2977525808617,-80.0234238386137,-80.3080274580739,-79.6724835800239,-79.9762164883868
0.151076320939335,-0.344177453344981,-0.408342234472611,-0.457328661251004,-0.498455428117345,-0.590611004871962,-0.717300445458552,-0.67687029479945,-0.676159541007549,-0.615665948081607,-0.623936420368877,-0.593999099658948,-0.592179130122778,-0.599878959199304,-71.887520100677,-73.9877695135767,-75.2478526067797,-76.6048485798845,-78.3965872421793,-82.2696204593171,-82.0741470844112,-82.5845863456307,-82.3504347682086,-83.1107033813697,-83.3911600413188,-82.7394758228176,-83.0567962453956
0.156751467710372,-0.359997198250626,-0.425961549271394,-0.476418280994014,-0.518850560111662,-0.614535530197905,-0.747298528992803,-0.706124675717465,-0.706367191935555,-0.641962558219032,-0.650415406899088,-0.618572990621263,-0.616531434124113,-0.624491141946816,-74.5193169802893,-76.6844096351414,-77.9933095391447,-79.3980811765425,-81.2512518996855,-85.2571103936996,-85.069171521419,-85.6348324487319,-85.4071779176541,-86.2029766156911,-86.4775340186787,-85.8106353897362,-86.1418772795123
0.162426614481409,-0.376245208971105,-0.443993934342908,-0.495930840324612,-0.539689427501495,-0.638987849717576,-0.778006993049478,-0.736112571933169,-0.737460062122227,-0.669051977775403,-0.677698770002785,-0.64384518134075,-0.641585894477485,-0.649814952605808,-77.1476606429599,-79.3772294951699,-80.7359013052936,-82.1888329707975,-84.1041483759413,-88.2433124924317,-88.0639061251022,-88.6881552842735,-88.4684543998171,-89.3007807574458,-89.5676650513364,-88.8864627909366,-89.231979809264
0.168101761252446,-0.39293758722664,-0.462456754882289,-0.515886399513921,-0.560995057228414,-0.663998177728802,-0.809464787214876,-0.766871391063443,-0.769476422915603,-0.696972801489209,-0.70582429825624,-0.669848271419343,-0.667377605793497,-0.675885426013664,-79.7725110393123,-82.0662334561578,-83.4756921824428,-84.9772185893443,-86.9554729959074,-91.2285888312456,-91.0587614534123,-91.7450596397576,-91.5347861585769,-92.4047087766122,-92.662126359327,-91.9675101912077,-92.327677642754
0.173776908023483,-0.410089206109116,-0.481365984066337,-0.536303520335208,-0.582788928831197,-0.689595290209118,-0.841710056002903,-0.79843780767507,-0.802453352755683,-0.725761217162612,-0.734827021649666,-0.696612358152879,-0.693938694059592,-0.702734362774355,-82.3938354291398,-84.7514378814481,-86.2127611492819,-87.7633713058172,-89.8054467815099,-94.2133442124463,-94.0541938506549,-94.8061070918321,-94.6067510008785,-95.5154163246448,-95.7615547674193,-95.0543876842229,-95.4296049586303
0.179452054794521,-0.427713902497927,-0.500736446527532,-0.557199547580145,-0.605091286001605,-0.715806906813615,-0.874780658296284,-0.830848211353496,-0.836427218606354,-0.755451327649919,-0.764739467209513,-0.724165276986642,-0.721298509060105,-0.7303904967076,-85.0116092561972,-87.4328723289275,-88.9472034839047,-90.5474449439331,-92.6543179249129,-97.1980299825684,-97.050709985254,-97.8719220214841,-97.6849893607613,-98.6336294377911,-98.8666575945378,-98.1477701751514,-98.538463576031
0.185127201565558,-0.445824641978563,-0.520582029833394,-0.578590860591893,-0.627921411801984,-0.742660033026139,-0.908714658630654,-0.864139135482899,-0.871434138091001,-0.786075435597145,-0.795591863177617,-0.752532788282426,-0.749483758713356,-0.758879596277663,-87.6258168361225,-90.1105805194397,-91.6791320456047,-93.3296155628704,-95.5023641205288,-100.183147744518,-100.048871422414,-100.943198280975,-100.770211667799,-101.76015305582,-101.978220072422,-101.248404897474,-101.655031061194
0.190802348336595,-0.464433660760715,-0.540915875646055,-0.600493094576595,-0.651297876303394,-0.77018127572977,-0.943550803989682,-0.898347683497079,-0.907510448453438,-0.817664309982211,-0.82741232877548,-0.781738729124886,-0.778518593816036,-0.788224518190835,-90.2364519072757,-92.7846212103234,-94.4086785497573,-96.1100831098892,-98.3498949069594,-103.169253477513,-103.049299716971,-104.020706550966,-103.86320676798,-104.895880732552,-105.09711394191,-104.357120061255,-104.780170043741
0.196477495107632,-0.483552596671494,-0.561750550787878,-0.622921348722123,-0.675238764033394,-0.798397138778066,-0.979329000883798,-0.933511970198844,-0.944693215249394,-0.85024746655834,-0.860227069462228,-0.811805158094516,-0.808424681394209,-0.81844523583483,-92.8435181149091,-95.4550689060027,-97.1359946746205,-98.8890729442573,-101.197253977309,-106.156961771739,-106.052681853696,-107.105302489085,-106.964851199401,-108.041805613179,-108.224307114918,-107.474834550012,-107.914838792822
0.202152641878669,-0.503192601144452,-0.583098203504108,-0.645890373314113,-0.699761885903052,-0.827334310228408,-1.01609081457256,-0.969671598185666,-0.983020800284833,-0.883853484020869,-0.89406060915427,-0.842752511647129,-0.839221273636694,-0.849558896207803,-95.4470294116462,-98.1220145654391,-99.861253193206,-101.666837465046,-104.044821708155,-109.146950536629,-109.059776318812,-110.197935872916,-110.076119876459,-111.19903306975,-111.360874839724,-110.602569185879,-111.060103307702
0.207827788649706,-0.523364441960123,-0.604970710374826,-0.669414750831239,-0.724884981905603,-0.857019947558815,-1.05387999780826,-1.00686818553889,-1.02253351857126,-0.918510388789043,-0.928936094126336,-0.874599804217727,-0.870925315553039,-0.881579881702061,-98.0470104471192,-100.785566277156,-102.584649078292,-104.443657737472,-106.893017739087,-112.13996606097,-112.071419753893,-113.299660845765,-113.198098085023,-114.36879503236,-114.508012397293,-113.741459499753,-114.217151343649
0.213502935420744,-0.544078599565135,-0.62737981445687,-0.693509070658093,-0.75062592112737,-0.887481971859306,-1.09274307624294,-1.04514596662898,-1.06327441960102,-0.954246140003794,-0.964875708254598,-0.907364900691898,-0.903551608618116,-0.914519969239624,-100.643496840491,-103.445849840336,-105.30640058127,-107.219845194869,-109.74230377753,-115.136828595302,-115.088534286929,-116.411647206318,-116.331995075344,-117.552466320196,-117.667049615104,-116.892770437028,-117.387308345137
0.219178082191781,-0.565345357501731,-0.650337261966003,-0.718188102796338,-0.777002903917893,-0.918749377609561,-1.13272999696071,-1.08455248740565,-1.10529021919332,-0.991089253062489,-1.00190123902329,-0.94106489494262,-0.937113075004532,-0.948388579770674,-103.236535554381,-106.103009389702,-108.026750410754,-109.99574347472,-112.593186675405,-118.138438518497,-118.112135714354,-119.535193151672,-119.479159447395,-120.751583231004,-120.83946751773,-120.057913149166,-120.572055760143
0.224853228962818,-0.58717488818285,-0.673854935670513,-0.743466973516896,-0.804034670874768,-0.950852566919387,-1.17389486620587,-1.12513941517774,-1.14863242353672,-1.02906960268123,-1.04003484581641,-0.975716636300796,-0.971621156147769,-0.983193187844284,-105.826185156759,-108.757208048107,-110.745966924835,-112.771730345984,-115.446221721794,-121.145783043602,-121.143342452099,-122.671739224888,-122.641096354848,-123.967864490194,-124.026917132073,-123.238464073021,-123.773051863686
0.230528375733855,-0.609577339339599,-0.697944992640723,-0.769361348833032,-0.831740726157238,-0.983823720379551,-1.21629679274301,-1.16696349389836,-1.19335868185337,-1.06821945113675,-1.07930008385587,-1.01133744980421,-1.00708639690041,-1.01893993080177,-108.412516129908,-111.408628535122,-113.464345374771,-115.548219831386,-118.302016251758,-124.159943632587,-124.183385439991,-125.822883818374,-125.819486853615,-127.203234865462,-127.231240860274,-126.436186591404,-126.99215542413
0.236203522504892,-0.632562920040897,-0.722620004055163,-0.795887628249835,-0.860141577195759,-1.01769720780419,-1.26000085582852,-1.21008766279614,-1.23953440800329,-1.10857475292183,-1.119723241621,-1.04794609424815,-1.04351925623503,-1.05563448236405,-110.995611116957,-114.057473819639,-116.182209244706,-118.325664467783,-121.161233592452,-127.182104094148,-127.233618998146,-128.990400160422,-129.016209410004,-130.459851632806,-130.454496605467,-129.653055556123,-130.231452346506
0.24187866927593,-0.656141990764166,-0.747893105048017,-0.823063151489047,-0.889259000453395,-1.05251005673074,-1.30507922704235,-1.25458237828539,-1.28723472421549,-1.15017679262262,-1.16133506381886,-1.08556402622778,-1.08093121783043,-1.09328322653415,-113.575565267941,-116.703967793735,-118.899911668226,-121.104557764223,-124.024597361092,-130.213559433672,-130.295532730936,-132.176254955147,-132.233363793009,-133.740134043211,-133.698984860416,-132.891284768845,-133.49328586475
0.247553816046967,-0.680325155608846,-0.773778151332132,-0.850906425462178,-0.919116335265867,-1.08830248229321,-1.35161246404827,-1.3005271646899,-1.33654676996579,-1.19307421511986,-1.20417292830767,-1.12421702420761,-1.11933624753994,-1.13189485830814,-116.152486446979,-119.348355957093,-121.617836896106,-123.885436862883,-126.892896155968,-133.255725509869,-133.370764515649,-135.382628660912,-135.473297479818,-137.046796095133,-136.967279044635,-136.153357830713,-136.780289977315
0.253228962818004,-0.705123360890933,-0.800289889102424,-0.879437369637851,-0.949738813780258,-1.12511849446678,-1.39969100644297,-1.34801243064656,-1.38757243276915,-1.23732551582846,-1.24828355438565,-1.16393724518826,-1.15875267544772,-1.17148241723645,-118.726495556528,-121.990906128365,-124.336401917291,-126.668885427222,-129.766988651164,-136.310149578772,-136.461114662632,-138.611937622954,-138.738634668113,-140.382882707967,-140.262259372137,-139.44206256454,-140.095427006638
0.258904109589041,-0.730548001341937,-0.827444137973433,-0.908677589659295,-0.981153933376636,-1.16300659514062,-1.44941690844176,-1.39714159525376,-1.44043156401844,-1.28300206462104,-1.29372633351464,-1.20476579632442,-1.19920558192259,-1.21206587589915,-121.297726788778,-124.631909199595,-127.056058120793,-129.455536743624,-132.647809118382,-139.378521649015,-139.568561270625,-141.866857930093,-142.03230804431,-143.751809513379,-143.587150417476,-142.760529121429,-143.442029254388
0.264579256360078,-0.75661103283592,-0.855257990670251,-0.938650678127994,-1.01339187763399,-1.20202057601099,-1.50090583355576,-1.44803355950215,-1.49526573824377,-1.3301917333196,-1.34057736352414,-1.24675589588484,-1.24072975519145,-1.25367538275881,-123.866327869785,-127.271679856928,-129.777293090227,-132.246077078004,-135.536373428591,-142.462686880789,-142.695276896361,-145.150351314881,-145.357593516175,-147.157406537398,-146.945562813071,-146.112272320375,-146.823844762452
0.270254403131115,-0.783325095625552,-0.883750030590543,-0.969382549849554,-1.04648599362515,-1.24222043518259,-1.55428935752737,-1.50082558000396,-1.55224263217374,-1.37900321678481,-1.38893428894654,-1.28997672236135,-1.28337332075079,-1.29635518250621,-126.432460332082,-129.910557370719,-132.500632460638,-135.041249301534,-138.433785531352,-145.564658906289,-145.843646557581,-148.465693004575,-148.718147934012,-150.603965920221,-150.341539241009,-149.501238216301,-150.245088321983
0.275929549902153,-0.810703647056697,-0.912940568635169,-1.00090181419753,-1.08047333260801,-1.28367342638242,-1.60971761416204,-1.55567659175261,-1.61156109767561,-1.42957112923244,-1.43892204435865,-1.33451804448973,-1.32720212433927,-1.3401684185286,-128.996299702592,-132.548906380179,-135.226641922747,-137.841856769856,-141.34124445812,-148.686634256037,-149.016287200829,-151.816501754153,-152.118050096556,-154.096293994612,-153.779605160632,-152.931855429741,-153.710496763277
0.28160469667319,-0.838761105171851,-0.942851903657219,-1.03324018826029,-1.11539526350121,-1.32645526294635,-1.66736233742346,-1.61277104623463,-1.67345701887038,-1.48206197635181,-1.49069961021591,-1.38049574186289,-1.37230496924726,-1.38520279434089,-131.558035729135,-135.187117665656,-137.955929293587,-140.648767497468,-144.260051826853,-151.831007846584,-152.216068656725,-155.206772160913,-155.561845189278,-157.639768043377,-157.264824623964,-156.409091544463,-157.225390469736
0.287279843444227,-0.867513006321058,-0.973508606586255,-1.06643295895546,-1.15129816886038,-1.37065149191174,-1.7274203473168,-1.67232333009767,-1.73821005029676,-1.53668110338342,-1.54446789890645,-1.42805833077851,-1.41879981093548,-1.4315772997338,-134.117872522285,-137.825608943752,-140.689146692381,-143.46291862043,-147.191619951224,-155.000389679451,-155.446136279673,-158.64090943808,-159.054592942047,-161.240398118726,-160.802861670925,-159.938515022095,-160.795740358579
0.292954990215264,-0.896976171632576,-1.00493782993557,-1.10051949403845,-1.18823423086405,-1.41635906488345,-1.79011754509473,-1.73458284464172,-1.80615134383179,-1.59368073749434,-1.60047889552484,-1.47739462046167,-1.46684102125518,-1.47945005770411,-136.676028681394,-140.464825648878,-143.426992810414,-146.285321177765,-150.137480503542,-158.197622762275,-158.709935305388,-162.12376692796,-162.601919853435,-164.904894443845,-164.400047816812,-163.526363214821,-164.428241709774
0.298630136986301,-0.927168889293049,-1.03716964677181,-1.13554381018178,-1.22626232138124,-1.46368812781054,-1.85571348107181,-1.79983983504842,-1.87767239403286,-1.65336924941487,-1.65904619381956,-1.52874264246692,-1.5166278406564,-1.5290274589438,-139.232737375258,-143.105241701951,-146.170215299284,-149.117065211701,-153.099293836532,-161.425802391095,-162.011237164207,-165.660686578831,-166.210075934962,-168.640741067354,-168.063456412393,-167.179617204045,-168.130395031741
0.304305283757339,-0.958111110331724,-1.07023741968656,-1.17155520486494,-1.26544900626087,-1.5127640607608,-1.92450657848072,-1.8684320729182,-1.95323514329582,-1.71612178420607,-1.72055708341842,-1.58240000959888,-1.56841416052463,-1.58057465579544,-141.788246347675,-145.747360247174,-148.919613221785,-151.959325198994,-156.078858910632,-164.688296826798,-165.354167886899,-169.257542768379,-169.885996466517,-172.456276437524,-171.800984488326,-170.906084246252,-171.91059590483
0.309980430528376,-0.989824656573759,-1.10417820123107,-1.20860895528158,-1.30586967943707,-1.56372979826969,-1.99684010050246,-1.94075251421161,-2.03338350807097,-1.78239242271785,-1.78548635791973,-1.63873587729303,-1.62251978081135,-1.63442766975195,-144.342817861765,-148.391714369986,-151.676039606801,-154.813365836298,-159.07812393521,-167.98876953294,-168.743238810676,-172.920789904969,-173.63736941299,-176.360781873022,-175.621443197225,-174.714488898484,-175.77823338987
