"Freq [GHz]","dB(S(2,1)) [] - $eps1='1' $eps2='0'","dB(S(2,1)) [] - $eps1='2' $eps2='0.1'","dB(S(2,1)) [] - $eps1='3' $eps2='0.2'","dB(S(2,1)) [] - $eps1='4' $eps2='0.3'","dB(S(2,1)) [] - $eps1='5' $eps2='0.6'","dB(S(2,1)) [] - $eps1='6' $eps2='0.9'","dB(S(2,1)) [] - $eps1='7' $eps2='1.1'","dB(S(2,1)) [] - $eps1='8' $eps2='1.4'","dB(S(2,1)) [] - $eps1='9' $eps2='1.8'","dB(S(2,1)) [] - $eps1='10' $eps2='2.1'","dB(S(2,1)) [] - $eps1='11' $eps2='2.5'","dB(S(2,1)) [] - $eps1='12' $eps2='2.8'","arg(S(2,1)) [deg] - $eps1='1' $eps2='0'","arg(S(2,1)) [deg] - $eps1='2' $eps2='0.1'","arg(S(2,1)) [deg] - $eps1='3' $eps2='0.2'","arg(S(2,1)) [deg] - $eps1='4' $eps2='0.3'","arg(S(2,1)) [deg] - $eps1='5' $eps2='0.6'","arg(S(2,1)) [deg] - $eps1='6' $eps2='0.9'","arg(S(2,1)) [deg] - $eps1='7' $eps2='1.1'","arg(S(2,1)) [deg] - $eps1='8' $eps2='1.4'","arg(S(2,1)) [deg] - $eps1='9' $eps2='1.8'","arg(S(2,1)) [deg] - $eps1='10' $eps2='2.1'","arg(S(2,1)) [deg] - $eps1='11' $eps2='2.5'","arg(S(2,1)) [deg] - $eps1='12' $eps2='2.8'"
0.1,-75.3222433117938,-72.4647984355228,-71.3997780346475,-71.0310284203956,-70.6639461224892,-70.6589126740509,-70.5251902404896,-70.3014992863494,-70.1724105237517,-70.1272704160445,-70.1998676615979,-70.2079500760475,77.9803022666081,53.6383332802045,36.8466031905103,24.2422320853994,10.661206176023,1.1710239262524,-6.3166928352461,-11.3423865642173,-11.2035390569376,-13.347657767672,-10.8325713310223,-12.2467803696713
0.105675146771037,-74.3593446628925,-71.5384923187759,-70.4824164058047,-70.0962137684774,-69.6977928026223,-69.6436828577533,-69.4544683611769,-69.1674825137252,-69.0037250073073,-68.9298659880433,-69.0176195437999,-69.0093333829255,72.4269773474862,47.1875596294391,29.9077373823408,16.9528740649371,2.93052189293813,-7.00023274277453,-14.9261514290067,-20.3188995599564,-20.1469280990265,-22.4348929331342,-19.721970376747,-21.235559802908
0.111350293542074,-73.4437506508345,-70.6535577491929,-69.5983822708451,-69.187015224412,-68.7504104544958,-68.6424659186971,-68.3951860712937,-68.0418500240296,-67.8387703143994,-67.7350067969514,-67.8370345981482,-67.811959142181,66.8944961363168,40.7827599891843,23.0207751223274,9.70010305459107,-4.80566920348037,-15.2273287758639,-23.6453862728161,-29.460718638858,-29.2628241995394,-31.7182575372776,-28.7804374924253,-30.4094578846121
0.117025440313112,-72.5701982907237,-69.8045559143389,-68.7424444102233,-68.2987186363629,-67.8181153760812,-67.652819376667,-67.3462841998966,-66.9251124856844,-66.6780018058765,-66.5438854483888,-66.6583573273682,-66.6165901449289,61.3830737727143,34.4205455913232,16.1772906520336,2.47118272399549,-12.563428382681,-23.529571177967,-32.4956265378727,-38.7934222590841,-38.5828105212673,-41.2308441997643,-38.0415318177364,-39.8027211514584
0.122700587084149,-71.734134794326,-68.9868064440859,-67.9101740151574,-67.4274234368313,-66.8980361477171,-66.6731825918543,-66.3077077759488,-65.819078432745,-65.5234460927428,-65.3594352400254,-65.4834815868902,-65.4257320572364,55.8927576878826,28.0974417373955,9.36922967233516,-4.74575904282338,-20.3573454973833,-31.9237286002929,-41.4939744772326,-48.3361094466805,-48.1325925678701,-50.998617893473,-47.5335286087439,-49.4435062191413
0.128375733855186,-70.9315905700796,-68.1962558219089,-67.0978030378335,-66.5699030557089,-65.9879879099765,-65.7027472412476,-65.2802385200044,-64.726601147862,-64.3785291621581,-64.186097565486,-64.3158197475608,-64.2434828885913,50.4234601782616,21.8099290406352,2.58891353961232,-11.9617952035162,-28.2005764662342,-40.423895435783,-50.6527795910888,-58.0997804684245,-57.9297559320366,-61.0376679466336,-57.277181477904,-59.3511274232655
0.134050880626223,-70.1590789922017,-67.4293735332748,-66.3021140997888,-65.7234946377945,-65.0863702498514,-64.741340640157,-64.2653056093381,-63.6512416454736,-63.2477725505018,-63.0294425246598,-63.1600641304084,-63.075216827359,44.974959112663,15.554473031816,-4.17096350021894,-19.1872457523981,-36.1048514485284,-49.0412164289548,-59.9789108479388,-68.0856155596137,-67.9811592071564,-71.3507671144499,-67.2827370092234,-69.5327537712967
0.13972602739726,-69.4135176496936,-66.6830687919403,-65.5203509361271,-64.8860138985701,-64.1920840165681,-63.7893079975274,-63.2647529679214,-62.5967851799112,-62.1362978112521,-61.8954976764925,-62.0217274540475,-61.9270204834776,39.546909413253,9.32755036160241,-10.9173498514882,-26.431711535008,-44.0804051427322,-57.7835587383546,-69.47305257214,-78.2837745184694,-78.2804260915583,-81.9244902779547,-77.5470153797082,-79.9801377409234
0.145401174168297,-68.6921655322689,-65.9546234523495,-64.7501483332002,-64.0556867081632,-63.3044598613084,-62.8473814660871,-62.2805594709061,-61.5666538156884,-61.0491181424797,-60.7898178449297,-60.9064460320757,-60.8048442769023,34.1388827456767,3.12566634486935,-17.6568384303212,-33.7040887544651,-52.1358547813995,-66.6551516803947,-79.1292737019852,-88.67299162048,-88.8062804392857,-92.72761861645,-88.0510045647951,-90.6673274494795
0.151076320939335,-67.9925701148442,-65.2416370760202,-63.9894739831612,-63.231094487743,-62.4231873830056,-61.9165310229235,-61.3145144931049,-60.5632585456107,-59.9902585225987,-59.7163719551629,-59.8190529673713,-59.7134186028359,28.750316773572,-3.05462927171861,-24.3956838915036,-41.012561236637,-60.2780694879872,-75.6562885197966,-88.9350003076417,-99.2215839824217,-99.5226085236588,-103.71210034486,-98.7590888606094,-101.550545476293
0.156751467710372,-67.3125274820765,-64.5419816481312,-63.2365817234715,-62.4111270744633,-61.5482454960668,-60.9977946761822,-60.3678788388579,-59.5873882739037,-58.9618322092042,-58.6764507243728,-58.7625331194054,-58.6551010494821,23.3805827809936,-9.2167319875818,-31.1398032067567,-48.3645803023907,-68.5120014813658,-84.7831799416517,-98.8716753554676,-109.890254919813,-110.380993845588,-114.817343529532,-109.620943364994,-112.571267535728
0.162426614481409,-66.6500467964578,-63.8537640833153,-62.4899725228626,-61.5949433795494,-60.6798275692794,-60.0920931968645,-59.4410635058008,-58.6377756318399,-57.9632713723098,-57.6678730016887,-57.7370800551685,-57.628921775349,18.0289613333273,-15.3639772018204,-37.894786159603,-55.7668203217447,-76.8405396842347,-94.0280494438903,-108.916133997132,-120.636426599579,-121.32594003685,-125.977778386349,-120.576429084182,-123.662794066746
0.168101761252446,-66.0033222977509,-63.1752947836381,-61.7483620662486,-60.7819350860541,-59.8182598465102,-59.2000406405333,-58.5333931251241,-57.7109391828894,-56.9909156509814,-56.6847341642881,-56.7394906062737,-56.6300995308363,12.6946559115695,-21.4996301590912,-44.6658944963037,-63.2251286924461,-85.2644014516654,-103.379550724528,-119.042786135781,-131.419651273679,-132.30220007412,-137.132417110171,-131.563283729483,-134.759488529961
0.173776908023483,-65.3707089162475,-62.5050610811552,-61.0106531409929,-59.971692138197,-58.9639118341582,-58.3217686322608,-57.6429618871273,-56.8013603627559,-56.0380919243177,-55.7177860669708,-55.763089506682,-55.6501930214247,7.37679981113157,-27.6268874474317,-51.4580619793423,-70.7444592973111,-93.7821087777176,-112.823554121001,-129.226205455447,-142.207123107192,-143.262889435996,-148.234598941399,-142.526172167081,-145.806865139522
0.179452054794521,-64.7507024334708,-61.8417049159369,-60.2759119676266,-59.1639682880956,-58.1171049649039,-57.4567857789652,-56.7666710495923,-55.9019656104407,-55.0956821408782,-54.7553728514857,-54.7982224532462,-54.6778595426349,2.07445698839314,-33.7488741174203,-58.275887656117,-78.3288113099298,-102.390047818355,-122.344288346983,-139.444097565281,-152.978369174914,-154.176804280187,-159.25969010079,-153.425305258009,-156.770420959616
0.185127201565558,-64.1419223767497,-61.1840035628294,-59.5433473735992,-58.358645369268,-57.2780171547502,-56.6038925842397,-55.9003933782154,-55.0048231073079,-54.1530532236272,-53.7846855242798,-53.8331983166191,-53.7000272742357,-3.21336788201215,-39.8686414803024,-65.1236310029911,-85.9811665842534,-111.082688785796,-131.925770433099,-149.67996874645,-163.728428365789,-165.033697980514,-170.209907109899,-164.243046674755,-167.641716604061
0.190802348336595,-63.5430974690915,-60.5308535070346,-58.8122918840862,-57.5556956763985,-56.4465955792389,-55.7611671006452,-55.0392767781574,-54.1019407095464,-53.1991658414056,-52.793110761868,-52.8554712967492,-52.703235790459,-8.48773105728786,-45.9891699466815,-72.0051997445398,-93.7034440799527,-119.852971465412,-141.553384648482,-159.925318008228,-174.469253582468,-175.84701922905,178.883957575803,-174.987766825019,-178.44136242712
0.196477495107632,-62.953053051516,-59.8812557694625,-58.082184409622,-56.7551419473919,-55.6224822427096,-54.9260273482165,-54.1781355030133,-53.1860675013436,-52.2237062685748,-51.7695324214152,-51.8528735251136,-51.6749581269289,-13.7497457191004,-52.1133687239351,-78.9241423710024,-101.496480917192,-128.692801463313,-151.215452088788,-170.181062747014,174.770524475943,173.345676778879,167.963150839711,174.304881338334,170.780589190146
0.202152641878669,-62.3707003109295,-59.2343039571615,-57.3525537658394,-55.9570154023351,-54.8049609245723,-54.0953661979776,-53.3118855967968,-52.2514453750319,-51.2181697022567,-50.7055775260358,-50.8148025200742,-50.6048651525807,-19.0005770300493,-58.2440786211918,-85.8836368802932,-109.360049711976,-137.593721011202,-160.904617333829,179.541882314593,163.947224406976,162.484101976717,156.943175266115,163.572558840392,159.945872093225
0.207827788649706,-61.7950269894539,-58.5891733275481,-56.6230028451868,-55.1613129854448,-53.9929321628172,-53.2657450816407,-52.4359864214831,-51.2944955126725,-50.176909069755,-49.5969002080488,-49.7333911412873,-49.4861159258476,-24.2414426933824,-64.3840740413675,-92.8864847084717,-117.292922941672,-146.547662522578,-170.618923631545,169.222848389474,153.004877377011,151.487989196216,145.717385073444,152.728074853525,148.950359906777
0.213502935420744,-61.2250890501245,-57.9451110463215,-55.8931929443756,-54.3679550433521,-53.1849209177241,-52.4336285043113,-51.5468633069469,-50.3144399344474,-49.0982102960827,-48.4446195201458,-48.6047717723722,-48.3168378780243,-29.4736095051363,-70.5360663748325,-99.9351080067308,-125.292994724539,-155.54773699969,179.63752869398,158.832401482257,141.879158698087,140.261383051637,134.162885310527,141.662450117294,137.66798752524
0.219178082191781,-60.6600035808722,-57.3014281322322,-55.1628282045946,-53.5767462294784,-52.3791183193478,-51.5956397902524,-50.6422964561145,-49.313838668734,-47.9854247476639,-47.2569070954608,-47.4305598185723,-47.101918828982,-34.698395716856,-76.7027069555505,-107.031554122944,-133.357463213706,-164.589010703821,169.854358184906,148.33402037303,130.50277586218,128.699403104284,122.150861475885,130.250287527794,125.958170544979
0.224853228962818,-60.0989425571112,-56.6574914969415,-54.4316402898054,-52.7873416979707,-51.5734555975069,-50.7488214050288,-49.7217645753918,-48.2989573642211,-46.8480489632518,-46.0503926133691,-46.2195549121105,-45.8549897823402,-39.9171680270101,-82.8865921232237,-114.177508445269,-141.483074898711,-173.669189675838,160.015126446689,137.686475180443,118.812720544145,116.699144775535,109.564480382381,118.359891650715,113.680326946637
0.230528375733855,-59.5411271157292,-56.0127172714445,-53.6993730258366,-51.9992216683025,-50.7657050989982,-49.8908870544047,-48.7867216620693,-47.279786411585,-45.7023592337615,-44.8504783524525,-44.9893057794843,-44.5998973999873,-45.1313431710252,-89.0902677357998,-121.374319956672,-149.666425270416,177.210842272233,150.097994065934,126.846985616099,106.759613117881,104.176421863165,96.3264896220203,105.871628594729,100.719788450153
0.236203522504892,-58.9858226543558,-55.3665645855434,-52.9657676307406,-51.2116767805997,-49.9536028771236,-49.0204553614411,-47.840763689268,-46.269446136805,-44.5708463316704,-43.6891054890068,-43.7665474301597,-43.3700888870422,-50.342388910899,-95.316235144524,-128.62303854926,-157.904303652869,168.046656661529,140.07679411304,115.775250513634,94.3184854222076,91.0882798800188,82.4332797025858,92.7070697901628,87.0261224884578
0.24187866927593,-58.4323344191891,-54.7185298954231,-52.2305485890714,-50.4238062949977,-49.1349848140951,-48.1372545298143,-46.8896111651016,-45.2827264963954,-43.4795441832303,-42.5988542990105,-42.5848824033507,-42.2038877365561,-55.5518247146616,-101.566958542581,-135.924468671046,-166.194066164185,158.830123072183,129.922541056261,104.438330315191,81.498878422573,77.4565874289347,67.9821030173675,78.8655664767313,72.6541044041599
0.247553816046967,-57.8800035186736,-54.0681416449708,-51.4934108185743,-49.6345303769015,-48.3079290794143,-47.2422817600798,-45.9408100228669,-44.3337312040118,-42.45294145641,-41.6043493409375,-41.4784374200568,-41.1352218787971,-60.7612243407996,-107.844872422623,-143.279238273261,-174.534015009213,149.549492357888,119.6054007511,92.8160595949713,68.3505543124101,63.3820277476279,53.1715718420845,64.4534491830685,57.7833489856371
0.253228962818004,-57.3282033955046,-53.4149556606749,-50.754008509099,-48.8426168886056,-47.4709011431342,-46.3378921870077,-45.0030598054635,-43.4330299947247,-41.5076753743968,-40.7145160290572,-40.4726273971822,-40.183168606249,-65.9722190666201,-114.152392433461,-150.687884915526,177.07623786487,140.189661254943,109.09713920268,80.9061783309249,54.9608991649795,49.0366075014001,38.2660657115716,49.6835729718661,42.6943656980792
0.258904109589041,-56.7763367038623,-52.7585504441259,-50.0119463821943,-48.0467221711442,-46.6228896810765,-45.4277800385153,-44.0851436896357,-42.5851393259669,-40.6475115153261,-39.9190775166145,-39.5760983423451,-39.3454429471951,-71.1864994497328,-120.491925893444,-158.15095527947,168.63544699766,130.732741425075,98.3739985854846,68.7278398966888,41.4423756047905,34.6319844895483,23.536672629003,34.8357757089479,27.7071186821377
0.264579256360078,-56.2238322619905,-52.0985232471846,-49.2667738114318,-47.2454443320561,-45.7635321781057,-44.5168069577204,-43.1945690636817,-41.7871983176237,-39.8616470948623,-39.1901106522342,-38.7774202755809,-38.5977317325403,-76.4058194993429,-126.865886177468,-165.669120952666,160.140469932941,121.158828841822,87.4198186138507,56.3219270824616,27.9124391094391,20.3741027692026,9.19917443788487,20.1945251978191,13.1084123652612
0.270254403131115,-55.6701426541724,-51.4344863124155,-48.517982486009,-46.4373871702461,-44.8932172233533,-43.6106363130598,-42.3361870579361,-41.0292878107081,-39.1266986590795,-38.4881081043767,-38.0468697720056,-37.8983576693073,-81.6320017551053,-133.276707726437,-173.243302307222,151.586083271663,111.447056462455,76.2290121919743,43.7470644327196,14.4714469468625,6.41896124236511,-4.63479384304186,5.98590414575153,-0.914444921402788
0.275929549902153,-55.1147418654706,-50.766063342357,-47.7650080269247,-45.6212321429774,-44.0131519376211,-42.715159124025,-41.5111534947887,-40.2962609343002,-38.4116135676863,-37.7708806702524,-37.3425928605765,-37.1977619767123,-86.8669422813303,-139.726864454717,179.125200085573,142.964893448131,101.57690818009,64.8087761384015,31.0714370204359,1.18442649834322,-7.1589247202963,-17.9779517386199,-7.67240826017939,-14.3157398685778
0.28160469667319,-54.557122991445,-50.0928866511419,-47.0072359192586,-44.7958158598254,-43.1253771462521,-41.8357504872374,-40.7165394032278,-39.5705297744255,-37.6840329595895,-37.001883030992,-36.6197806922951,-36.44939086967,-92.1126153593217,-146.21889051971,171.434572850081,134.267355642285,91.529778215819,53.179801719298,18.3619942197912,-11.9292581999837,-20.3776008508367,-30.9545514913997,-20.7926461506912,-27.1907413084825
0.287279843444227,-53.9967966985678,-49.4145944893482,-46.2440119838749,-43.9602099162409,-42.2327094635078,-40.9764645983581,-39.9457082303611,-38.8350798687443,-36.9161098165008,-36.1554505224228,-35.83929619926,-35.6172337636455,-97.3710818547257,-152.75540427569,163.682361791539,125.481912439354,81.2907007064319,41.3748512670642,5.67352352127343,-24.8970408224759,-33.3380604877032,-43.7696969703292,-33.5037056229274,-39.7427389431804
0.292954990215264,-53.4332892262184,-48.7308290584254,-45.4746574364916,-43.1137997356021,-41.3385893407383,-40.1393340217627,-39.1893538693113,-38.0760772573338,-36.0884714101405,-35.2194299020637,-34.9729209285544,-34.6791575445695,-102.644495014551,-159.339133699449,155.865354036877,116.595263426192,70.8500985051301,29.4350013479193,-6.96001986376183,-37.7864976127293,-46.2026760083447,-56.6788476245324,-46.0195633206653,-52.2465790023275
0.298630136986301,-52.8661410048692,-48.0412349359014,-44.6984882579084,-42.2563580675337,-40.446822178332,-39.3239456398972,-38.4369426495355,-37.2847454623441,-35.1925047500427,-34.1972708148207,-34.0058037106442,-33.6288151595247,-107.93510888343,-165.972947071687,147.979477779089,107.592776217967,60.205299065044,17.4040065835084,-19.5304069801688,-50.6937942697807,-59.171287254012,-69.9615751826074,-58.6101043673122,-65.0239732205149
0.304305283757339,-52.2949052585107,-47.3454582217384,-43.9148386633501,-41.3881078456376,-39.561214661041,-38.5274093780416,-37.6782604293928,-36.4585068328687,-34.231931889822,-33.1109003277912,-32.9386367207445,-32.4792958793662,-113.245286683145,-172.659883329475,140.019725273299,98.4590468314559,49.3614984221794,5.3218247306251,-32.0558384527885,-63.7297007943158,-72.4573905462755,-83.8879839659432,-71.5797779846065,-78.4226326651179
0.309980430528376,-51.7191471972714,-46.6431464495839,-43.1230879635089,-40.5097671164907,-38.685137848756,-37.7447328934396,-36.9048158366044,-35.6014799264488,-33.2241652840765,-32.002934799338,-31.7916094581153,-31.2696310319083,-118.577515789048,-179.403188400777,131.98010607992,89.1786112209338,38.3318089941934,-6.78140641652919,-44.5779490584057,-77.0040730082122,-86.2588502633495,-98.6574450713336,-85.2413309614207,-92.7704040414657
0.315655577299413,-51.1384425337696,-45.9339492660068,-42.3226901036534,-39.6225672524184,-37.821078128814,-36.9695177633023,-36.110946714223,-34.7242559849699,-32.2003898423665,-30.9321157250428,-30.6095815825791,-30.0694836832542,-123.934411502865,173.793648626231,123.853636759096,79.7367964336112,27.1361285868331,-18.8898516552886,-57.1560639159335,-90.6086278212785,-100.714773145887,-114.301878947677,-99.8567748170404,-108.261698399604
0.32133072407045,-50.5523771756027,-45.2175201073916,-41.5132047860529,-38.7282339654472,-36.9702577296022,-36.1948375446114,-35.2945703532473,-33.8425917579927,-31.2013205328563,-29.9537998359215,-29.4618251777217,-28.966326309627,-129.318735383548,166.926856793231,115.632372675686,70.1206751195982,15.7987903347233,-31.0043079813441,-69.8596204609174,-104.598691489362,-115.849698096148,-130.606043827172,-115.518073975871,-124.774102848095
0.327005870841487,-49.9605463354619,-44.493518867693,-40.6943288623365,-37.8289207044185,-36.1324113842893,-35.4141517400423,-34.4575529544954,-32.9745749340013,-30.265546379643,-29.0904882692214,-28.4223388886599,-28.0197246901314,-134.733405991165,159.992343020254,107.30748681611,60.3200556901062,4.34523009720256,-43.1422765640239,-82.7593381268822,-118.9778667796,-131.533989782657,-147.168287251247,-132.004598466914,-141.78570582506
0.332681017612524,-49.3625544546861,-43.7616157084164,-39.8659263632467,-36.9270864192042,-35.3057767145899,-34.6221396718598,-33.6056416895214,-32.1363481853514,-29.4133995910314,-28.3212267782411,-27.5273308669005,-27.2145479952949,-140.181514625713,152.985651354501,98.8693995586349,50.3283957393676,-7.20180565014948,-55.3360319727442,-95.9174955645958,-133.693490297281,-147.513937730917,-163.629098388358,-148.796730504414,-158.663307237215
